;$FILEVERSION=2.0
;$STARTTIME=44609.4354609491
;$COLUMNS=N,O,T,I,d,l,D
;
;   Start time: 2/17/2022 10:27:03.826.0
;   Generated by PCAN-View v5.0.1.822
;   Message   Time    Type ID     Rx/Tx
;   Number    Offset  |    [hex]  |  Data Length
;   |         [ms]    |    |      |  |  Data [hex] ...
;   |         |       |    |      |  |  |
;---+-- ------+------ +- --+----- +- +- +- +- -- -- -- -- -- -- --
      1      4176.640 DT     0211 Rx 8  00 00 00 00 00 00 00 00 
      2      4176.939 DT     0111 Rx 8  8D 40 00 00 06 00 00 00 
      3      4178.233 DT     0212 Rx 8  00 00 00 00 00 00 00 00 
      4      4178.532 DT     0112 Rx 8  FF 25 00 00 FC FF 00 00 
      5      4179.221 DT     0213 Rx 8  00 00 00 00 00 00 00 00 
      6      4179.519 DT     0113 Rx 8  2C 2D 00 00 00 00 00 00 
      7      4180.089 DT     0211 Rx 8  00 00 00 00 00 00 00 00 
      8      4180.389 DT     0111 Rx 8  AF 40 00 00 05 00 00 00 
      9      4181.134 DT     0212 Rx 8  00 00 00 00 00 00 00 00 
     10      4181.432 DT     0112 Rx 8  C8 25 00 00 FC FF 00 00 
     11      4182.062 DT     0213 Rx 8  00 00 00 00 00 00 00 00 
     12      4182.335 DT     0113 Rx 8  2C 2D 00 00 00 00 00 00 
     13      4183.219 DT     0211 Rx 8  00 00 00 00 00 00 00 00 
     14      4183.525 DT     0111 Rx 8  C1 40 00 00 04 00 00 00 
     15      4184.615 DT     0212 Rx 8  00 00 00 00 00 00 00 00 
     16      4184.887 DT     0112 Rx 8  9A 25 00 00 FD FF 00 00 
     17      4189.660 DT     0213 Rx 8  00 00 00 00 00 00 00 00 
     18      4189.941 DT     0113 Rx 8  2C 2D 00 00 00 00 00 00 
     19      4190.180 DT     0211 Rx 8  00 00 00 00 00 00 00 00 
     20      4190.480 DT     0111 Rx 8  C1 40 00 00 02 00 00 00 
     21      4191.175 DT     0212 Rx 8  00 00 00 00 00 00 00 00 
     22      4191.471 DT     0112 Rx 8  42 25 00 00 FE FF 00 00 
     23      4192.114 DT     0213 Rx 8  00 00 00 00 00 00 00 00 
     24      4192.412 DT     0113 Rx 8  2C 2D 00 00 00 00 00 00 
     25      4193.146 DT     0211 Rx 8  00 00 00 00 00 00 00 00 
     26      4193.447 DT     0111 Rx 8  BD 40 00 00 01 00 00 00 
     27      4194.269 DT     0212 Rx 8  00 00 00 00 00 00 00 00 
     28      4194.546 DT     0112 Rx 8  2B 25 00 00 FE FF 00 00 
     29      4195.135 DT     0213 Rx 8  00 00 00 00 00 00 00 00 
     30      4195.410 DT     0113 Rx 8  1D 2D 00 00 00 00 00 00 
     31      4196.050 DT     0211 Rx 8  00 00 00 00 00 00 00 00 
     32      4196.324 DT     0111 Rx 8  AF 40 00 00 01 00 00 00 
     33      4197.119 DT     0212 Rx 8  00 00 00 00 00 00 00 00 
     34      4197.395 DT     0112 Rx 8  18 25 00 00 FE FF 00 00 
     35      4198.116 DT     0213 Rx 8  00 00 00 00 00 00 00 00 
     36      4198.391 DT     0113 Rx 8  0F 2D 00 00 00 00 00 00 
     37      4199.170 DT     0211 Rx 8  00 00 00 00 00 00 00 00 
     38      4199.444 DT     0111 Rx 8  A4 40 00 00 00 00 00 00 
     39      4200.093 DT     0212 Rx 8  00 00 00 00 00 00 00 00 
     40      4200.365 DT     0112 Rx 8  0B 25 00 00 FE FF 00 00 
     41      4201.070 DT     0213 Rx 8  00 00 00 00 00 00 00 00 
     42      4201.345 DT     0113 Rx 8  0F 2D 00 00 00 00 00 00 
     43      4202.188 DT     0211 Rx 8  00 00 00 00 00 00 00 00 
     44      4202.464 DT     0111 Rx 8  A0 40 00 00 00 00 00 00 
     45      4203.062 DT     0212 Rx 8  00 00 00 00 00 00 00 00 
     46      4203.336 DT     0112 Rx 8  0B 25 00 00 FF FF 00 00 
     47      4204.097 DT     0213 Rx 8  00 00 00 00 00 00 00 00 
     48      4204.372 DT     0113 Rx 8  0F 2D 00 00 00 00 00 00 
     49      4205.292 DT     0211 Rx 8  00 00 00 00 00 00 00 00 
     50      4205.568 DT     0111 Rx 8  A0 40 00 00 00 00 00 00 
     51      4206.118 DT     0212 Rx 8  00 00 00 00 00 00 00 00 
     52      4206.393 DT     0112 Rx 8  0B 25 00 00 FF FF 00 00 
     53      4207.197 DT     0213 Rx 8  00 00 00 00 00 00 00 00 
     54      4207.472 DT     0113 Rx 8  0F 2D 00 00 00 00 00 00 
     55      4208.199 DT     0211 Rx 8  00 00 00 00 00 00 00 00 
     56      4208.475 DT     0111 Rx 8  A0 40 00 00 00 00 00 00 
     57      4209.116 DT     0212 Rx 8  00 00 00 00 00 00 00 00 
     58      4209.391 DT     0112 Rx 8  0B 25 00 00 00 00 00 00 
     59      4210.179 DT     0213 Rx 8  00 00 00 00 00 00 00 00 
     60      4210.454 DT     0113 Rx 8  0F 2D 00 00 00 00 00 00 
     61      4211.165 DT     0211 Rx 8  00 00 00 00 00 00 00 00 
     62      4211.441 DT     0111 Rx 8  A0 40 00 00 00 00 00 00 
     63      4212.181 DT     0212 Rx 8  00 00 00 00 00 00 00 00 
     64      4212.457 DT     0112 Rx 8  18 25 00 00 00 00 00 00 
     65      4213.158 DT     0213 Rx 8  00 00 00 00 00 00 00 00 
     66      4213.432 DT     0113 Rx 8  0F 2D 00 00 00 00 00 00 
     67      4214.171 DT     0211 Rx 8  00 00 00 00 00 00 00 00 
     68      4214.455 DT     0111 Rx 8  A0 40 00 00 00 00 00 00 
     69      4215.305 DT     0212 Rx 8  00 00 00 00 00 00 00 00 
     70      4215.579 DT     0112 Rx 8  26 25 00 00 00 00 00 00 
     71      4216.068 DT     0213 Rx 8  00 00 00 00 00 00 00 00 
     72      4216.343 DT     0113 Rx 8  0F 2D 00 00 00 00 00 00 
     73      4217.099 DT     0211 Rx 8  00 00 00 00 00 00 00 00 
     74      4217.376 DT     0111 Rx 8  A0 40 00 00 00 00 00 00 
     75      4218.120 DT     0212 Rx 8  00 00 00 00 00 00 00 00 
     76      4218.394 DT     0112 Rx 8  34 25 00 00 00 00 00 00 
     77      4219.056 DT     0213 Rx 8  00 00 00 00 00 00 00 00 
     78      4219.332 DT     0113 Rx 8  0F 2D 00 00 00 00 00 00 
     79      4220.143 DT     0211 Rx 8  00 00 00 00 00 00 00 00 
     80      4220.419 DT     0111 Rx 8  A0 40 00 00 00 00 00 00 
     81      4221.051 DT     0212 Rx 8  00 00 00 00 00 00 00 00 
     82      4221.324 DT     0112 Rx 8  42 25 00 00 00 00 00 00 
     83      4222.082 DT     0213 Rx 8  00 00 00 00 00 00 00 00 
     84      4222.373 DT     0113 Rx 8  0F 2D 00 00 00 00 00 00 
     85      4223.104 DT     0211 Rx 8  00 00 00 00 00 00 00 00 
     86      4223.384 DT     0111 Rx 8  A0 40 00 00 00 00 00 00 
     87      4224.062 DT     0212 Rx 8  00 00 00 00 00 00 00 00 
     88      4224.336 DT     0112 Rx 8  59 25 00 00 00 00 00 00 
     89      4225.028 DT     0213 Rx 8  00 00 00 00 00 00 00 00 
     90      4225.303 DT     0113 Rx 8  0F 2D 00 00 00 00 00 00 
     91      4226.107 DT     0211 Rx 8  00 00 00 00 00 00 00 00 
     92      4226.383 DT     0111 Rx 8  A0 40 00 00 00 00 00 00 
     93      4227.054 DT     0212 Rx 8  00 00 00 00 00 00 00 00 
     94      4227.330 DT     0112 Rx 8  70 25 00 00 00 00 00 00 
     95      4228.096 DT     0213 Rx 8  00 00 00 00 00 00 00 00 
     96      4228.371 DT     0113 Rx 8  0F 2D 00 00 00 00 00 00 
     97      4229.029 DT     0211 Rx 8  00 00 00 00 00 00 00 00 
     98      4229.306 DT     0111 Rx 8  A0 40 00 00 00 00 00 00 
     99      4230.000 DT     0212 Rx 8  00 00 00 00 00 00 00 00 
    100      4230.273 DT     0112 Rx 8  8C 25 00 00 00 00 00 00 
    101      4231.054 DT     0213 Rx 8  00 00 00 00 00 00 00 00 
    102      4231.329 DT     0113 Rx 8  0F 2D 00 00 00 00 00 00 
    103      4232.031 DT     0211 Rx 8  00 00 00 00 00 00 00 00 
    104      4232.307 DT     0111 Rx 8  A0 40 00 00 00 00 00 00 
    105      4233.005 DT     0212 Rx 8  00 00 00 00 00 00 00 00 
    106      4233.264 DT     0112 Rx 8  A3 25 00 00 00 00 00 00 
    107      4234.034 DT     0213 Rx 8  00 00 00 00 00 00 00 00 
    108      4234.309 DT     0113 Rx 8  0F 2D 00 00 00 00 00 00 
    109      4235.001 DT     0211 Rx 8  00 00 00 00 00 00 00 00 
    110      4235.281 DT     0111 Rx 8  A0 40 00 00 00 00 00 00 
    111      4236.046 DT     0212 Rx 8  00 00 00 00 00 00 00 00 
    112      4236.320 DT     0112 Rx 8  BE 25 00 00 00 00 00 00 
    113      4237.007 DT     0213 Rx 8  00 00 00 00 00 00 00 00 
    114      4237.282 DT     0113 Rx 8  0F 2D 00 00 00 00 00 00 
    115      4238.027 DT     0211 Rx 8  00 00 00 00 00 00 00 00 
    116      4238.303 DT     0111 Rx 8  A0 40 00 00 00 00 00 00 
    117      4239.033 DT     0212 Rx 8  00 00 00 00 00 00 00 00 
    118      4239.310 DT     0112 Rx 8  DA 25 00 00 01 00 00 00 
    119      4239.970 DT     0213 Rx 8  00 00 00 00 00 00 00 00 
    120      4240.245 DT     0113 Rx 8  0F 2D 00 00 00 00 00 00 
    121      4241.021 DT     0211 Rx 8  00 00 00 00 00 00 00 00 
    122      4241.297 DT     0111 Rx 8  A0 40 00 00 00 00 00 00 
    123      4242.013 DT     0212 Rx 8  00 00 00 00 00 00 00 00 
    124      4242.286 DT     0112 Rx 8  F6 25 00 00 01 00 00 00 
    125      4244.072 DT     0213 Rx 8  00 00 00 00 00 00 00 00 
    126      4244.347 DT     0113 Rx 8  0F 2D 00 00 00 00 00 00 
    127      4245.006 DT     0211 Rx 8  00 00 00 00 00 00 00 00 
    128      4245.282 DT     0111 Rx 8  A0 40 00 00 00 00 00 00 
    129      4246.017 DT     0212 Rx 8  00 00 00 00 00 00 00 00 
    130      4246.380 DT     0112 Rx 8  16 26 00 00 01 00 00 00 
    131      4247.249 DT     0213 Rx 8  00 00 00 00 00 00 00 00 
    132      4247.524 DT     0113 Rx 8  0F 2D 00 00 00 00 00 00 
    133      4248.991 DT     0211 Rx 8  00 00 00 00 00 00 00 00 
    134      4249.267 DT     0111 Rx 8  A0 40 00 00 00 00 00 00 
    135      4249.932 DT     0212 Rx 8  00 00 00 00 00 00 00 00 
    136      4250.210 DT     0112 Rx 8  36 26 00 00 01 00 00 00 
    137      4250.976 DT     0213 Rx 8  00 00 00 00 00 00 00 00 
    138      4251.251 DT     0113 Rx 8  0F 2D 00 00 00 00 00 00 
    139      4251.889 DT     0211 Rx 8  00 00 00 00 00 00 00 00 
    140      4252.166 DT     0111 Rx 8  A0 40 00 00 00 00 00 00 
    141      4252.956 DT     0212 Rx 8  00 00 00 00 00 00 00 00 
    142      4253.242 DT     0112 Rx 8  4D 26 00 00 01 00 00 00 
    143      4253.972 DT     0213 Rx 8  00 00 00 00 00 00 00 00 
    144      4254.246 DT     0113 Rx 8  0F 2D 00 00 00 00 00 00 
    145      4255.017 DT     0211 Rx 8  00 00 00 00 00 00 00 00 
    146      4255.293 DT     0111 Rx 8  A0 40 00 00 00 00 00 00 
    147      4255.901 DT     0212 Rx 8  00 00 00 00 00 00 00 00 
    148      4256.175 DT     0112 Rx 8  5F 26 00 00 01 00 00 00 
    149      4257.143 DT     0213 Rx 8  00 00 00 00 00 00 00 00 
    150      4257.417 DT     0113 Rx 8  0F 2D 00 00 00 00 00 00 
    151      4257.942 DT     0211 Rx 8  00 00 00 00 00 00 00 00 
    152      4258.218 DT     0111 Rx 8  A0 40 00 00 00 00 00 00 
    153      4258.886 DT     0212 Rx 8  00 00 00 00 00 00 00 00 
    154      4259.161 DT     0112 Rx 8  76 26 00 00 01 00 00 00 
    155      4259.839 DT     0213 Rx 8  00 00 00 00 00 00 00 00 
    156      4260.114 DT     0113 Rx 8  0F 2D 00 00 00 00 00 00 
    157      4260.881 DT     0211 Rx 8  00 00 00 00 00 00 00 00 
    158      4261.157 DT     0111 Rx 8  A0 40 00 00 00 00 00 00 
    159      4261.836 DT     0212 Rx 8  00 00 00 00 00 00 00 00 
    160      4262.110 DT     0112 Rx 8  88 26 00 00 01 00 00 00 
    161      4262.910 DT     0213 Rx 8  00 00 00 00 00 00 00 00 
    162      4263.188 DT     0113 Rx 8  0F 2D 00 00 00 00 00 00 
    163      4281.362 DT     0211 Rx 8  00 00 00 00 00 00 00 00 
    164      4281.638 DT     0111 Rx 8  A0 40 00 00 00 00 00 00 
    165      4282.880 DT     0212 Rx 8  00 00 00 00 00 00 00 00 
    166      4283.095 DT     0213 Rx 8  00 00 00 00 00 00 00 00 
    167      4283.156 DT     0112 Rx 8  16 27 00 00 01 00 00 00 
    168      4283.457 DT     0113 Rx 8  FF 2C 00 00 00 00 00 00 
    169      4283.924 DT     0211 Rx 8  00 00 00 00 00 00 00 00 
    170      4284.245 DT     0111 Rx 8  A0 40 00 00 00 00 00 00 
    171      4284.981 DT     0212 Rx 8  00 00 00 00 00 00 00 00 
    172      4285.258 DT     0112 Rx 8  24 27 00 00 01 00 00 00 
    173      4285.869 DT     0213 Rx 8  00 00 00 00 00 00 00 00 
    174      4286.144 DT     0113 Rx 8  FF 2C 00 00 00 00 00 00 
    175      4286.852 DT     0211 Rx 8  00 00 00 00 00 00 00 00 
    176      4287.128 DT     0111 Rx 8  A0 40 00 00 00 00 00 00 
    177      4287.883 DT     0212 Rx 8  00 00 00 00 00 00 00 00 
    178      4288.159 DT     0112 Rx 8  3A 27 00 00 01 00 00 00 
    179      4295.605 DT     0213 Rx 8  00 00 00 00 00 00 00 00 
    180      4295.910 DT     0113 Rx 8  FF 2C 00 00 00 00 00 00 
    181      4295.955 DT     0211 Rx 8  00 00 00 00 00 00 00 00 
    182      4296.233 DT     0111 Rx 8  A0 40 00 00 00 00 00 00 
    183      4309.267 DT     0212 Rx 8  00 00 00 00 00 00 00 00 
    184      4309.570 DT     0112 Rx 8  E7 27 00 00 01 00 00 00 
    185      4309.944 DT     0213 Rx 8  00 00 00 00 00 00 00 00 
    186      4310.281 DT     0113 Rx 8  FF 2C 00 00 00 00 00 00 
    187      4310.836 DT     0211 Rx 8  00 00 00 00 00 00 00 00 
    188      4311.140 DT     0111 Rx 8  A0 40 00 00 00 00 00 00 
    189      4311.850 DT     0212 Rx 8  00 00 00 00 00 00 00 00 
    190      4312.125 DT     0112 Rx 8  F4 27 00 00 01 00 00 00 
    191      4327.869 DT     0213 Rx 8  00 00 00 00 00 00 00 00 
    192      4328.172 DT     0113 Rx 8  F0 2C 00 00 00 00 00 00 
    193      4328.770 DT     0211 Rx 8  00 00 00 00 00 00 00 00 
    194      4329.073 DT     0111 Rx 8  A0 40 00 00 00 00 00 00 
    195      4329.692 DT     0212 Rx 8  00 00 00 00 00 00 00 00 
    196      4329.992 DT     0112 Rx 8  7C 28 00 00 01 00 00 00 
    197      4330.710 DT     0213 Rx 8  00 00 00 00 00 00 00 00 
    198      4331.010 DT     0113 Rx 8  F0 2C 00 00 00 00 00 00 
    199      4331.705 DT     0211 Rx 8  00 00 00 00 00 00 00 00 
    200      4332.005 DT     0111 Rx 8  A0 40 00 00 00 00 00 00 
    201      4332.779 DT     0212 Rx 8  00 00 00 00 00 00 00 00 
    202      4333.075 DT     0112 Rx 8  8E 28 00 00 01 00 00 00 
    203      4333.772 DT     0213 Rx 8  00 00 00 00 00 00 00 00 
    204      4334.062 DT     0113 Rx 8  F0 2C 00 00 00 00 00 00 
    205      4334.724 DT     0211 Rx 8  00 00 00 00 00 00 00 00 
    206      4335.034 DT     0111 Rx 8  A0 40 00 00 00 00 00 00 
    207      4335.769 DT     0212 Rx 8  00 00 00 00 00 00 00 00 
    208      4336.043 DT     0112 Rx 8  A4 28 00 00 01 00 00 00 
    209      4347.888 DT     0213 Rx 8  00 00 00 00 00 00 00 00 
    210      4348.218 DT     0113 Rx 8  D2 2C 00 00 00 00 00 00 
    211      4348.783 DT     0211 Rx 8  00 00 00 00 00 00 00 00 
    212      4349.122 DT     0111 Rx 8  A0 40 00 00 00 00 00 00 
    213      4349.701 DT     0212 Rx 8  00 00 00 00 00 00 00 00 
    214      4350.048 DT     0112 Rx 8  1E 29 00 00 01 00 00 00 
    215      4350.801 DT     0213 Rx 8  00 00 00 00 00 00 00 00 
    216      4351.074 DT     0113 Rx 8  D2 2C 00 00 00 00 00 00 
    217      4351.752 DT     0211 Rx 8  00 00 00 00 00 00 00 00 
    218      4352.043 DT     0111 Rx 8  A0 40 00 00 00 00 00 00 
    219      4358.319 DT     0212 Rx 8  00 00 00 00 00 00 00 00 
    220      4358.667 DT     0213 Rx 8  00 00 00 00 00 00 00 00 
    221      4358.607 DT     0112 Rx 8  8D 29 00 00 01 00 00 00 
    222      4358.979 DT     0113 Rx 8  C3 2C 00 00 00 00 00 00 
    223      4359.689 DT     0211 Rx 8  00 00 00 00 00 00 00 00 
    224      4359.965 DT     0111 Rx 8  A0 40 00 00 00 00 00 00 
    225      4360.648 DT     0212 Rx 8  00 00 00 00 00 00 00 00 
    226      4360.956 DT     0112 Rx 8  A8 29 00 00 01 00 00 00 
    227      4361.617 DT     0213 Rx 8  00 00 00 00 00 00 00 00 
    228      4361.901 DT     0113 Rx 8  C3 2C 00 00 00 00 00 00 
    229      4362.664 DT     0211 Rx 8  00 00 00 00 00 00 00 00 
    230      4362.951 DT     0111 Rx 8  A0 40 00 00 00 00 00 00 
    231      4363.669 DT     0212 Rx 8  00 00 00 00 00 00 00 00 
    232      4363.966 DT     0112 Rx 8  D5 29 00 00 01 00 00 00 
    233      4364.723 DT     0213 Rx 8  00 00 00 00 00 00 00 00 
    234      4365.024 DT     0113 Rx 8  B4 2C 00 00 00 00 00 00 
    235      4365.648 DT     0211 Rx 8  00 00 00 00 00 00 00 00 
    236      4365.925 DT     0111 Rx 8  A0 40 00 00 00 00 00 00 
    237      4366.673 DT     0212 Rx 8  00 00 00 00 00 00 00 00 
    238      4366.954 DT     0112 Rx 8  01 2A 00 00 02 00 00 00 
    239      4367.626 DT     0213 Rx 8  00 00 00 00 00 00 00 00 
    240      4367.918 DT     0113 Rx 8  B4 2C 00 00 00 00 00 00 
    241      4368.701 DT     0211 Rx 8  00 00 00 00 00 00 00 00 
    242      4369.006 DT     0111 Rx 8  A0 40 00 00 00 00 00 00 
    243      4369.693 DT     0212 Rx 8  00 00 00 00 00 00 00 00 
    244      4369.968 DT     0112 Rx 8  37 2A 00 00 02 00 00 00 
    245      4370.699 DT     0213 Rx 8  00 00 00 00 00 00 00 00 
    246      4370.975 DT     0113 Rx 8  B4 2C 00 00 00 00 00 00 
    247      4371.735 DT     0211 Rx 8  00 00 00 00 00 00 00 00 
    248      4372.010 DT     0111 Rx 8  A0 40 00 00 00 00 00 00 
    249      4372.723 DT     0212 Rx 8  00 00 00 00 00 00 00 00 
    250      4372.998 DT     0112 Rx 8  70 2A 00 00 02 00 00 00 
    251      4373.648 DT     0213 Rx 8  00 00 00 00 00 00 00 00 
    252      4373.925 DT     0113 Rx 8  B4 2C 00 00 00 00 00 00 
    253      4374.782 DT     0211 Rx 8  00 00 00 00 00 00 00 00 
    254      4375.058 DT     0111 Rx 8  A0 40 00 00 00 00 00 00 
    255      4375.695 DT     0212 Rx 8  00 00 00 00 00 00 00 00 
    256      4375.974 DT     0112 Rx 8  AE 2A 00 00 02 00 00 00 
    257      4376.930 DT     0213 Rx 8  00 00 00 00 00 00 00 00 
    258      4377.224 DT     0113 Rx 8  B4 2C 00 00 00 00 00 00 
    259      4388.978 DT     0211 Rx 8  00 00 00 00 00 00 00 00 
    260      4389.253 DT     0111 Rx 8  A0 40 00 00 00 00 00 00 
    261      4390.323 DT     0212 Rx 8  00 00 00 00 00 00 00 00 
    262      4390.580 DT     0112 Rx 8  65 2C 00 00 04 00 00 00 
    263      4391.512 DT     0213 Rx 8  00 00 00 00 00 00 00 00 
    264      4391.826 DT     0113 Rx 8  B4 2C 00 00 00 00 00 00 
    265      4391.901 DT     0211 Rx 8  00 00 00 00 00 00 00 00 
    266      4392.217 DT     0111 Rx 8  A0 40 00 00 00 00 00 00 
    267      4392.984 DT     0212 Rx 8  00 00 00 00 00 00 00 00 
    268      4393.291 DT     0112 Rx 8  B3 2C 00 00 04 00 00 00 
    269      4393.583 DT     0213 Rx 8  00 00 00 00 00 00 00 00 
    270      4393.892 DT     0113 Rx 8  B4 2C 00 00 00 00 00 00 
    271      4394.886 DT     0211 Rx 8  00 00 00 00 00 00 00 00 
    272      4395.174 DT     0111 Rx 8  A0 40 00 00 00 00 00 00 
    273      4395.581 DT     0212 Rx 8  00 00 00 00 00 00 00 00 
    274      4395.895 DT     0112 Rx 8  2C 2D 00 00 04 00 00 00 
    275      4396.645 DT     0213 Rx 8  00 00 00 00 00 00 00 00 
    276      4396.946 DT     0113 Rx 8  B4 2C 00 00 00 00 00 00 
    277      4397.575 DT     0211 Rx 8  00 00 00 00 00 00 00 00 
    278      4397.874 DT     0111 Rx 8  A0 40 00 00 00 00 00 00 
    279      4398.610 DT     0212 Rx 8  00 00 00 00 00 00 00 00 
    280      4398.884 DT     0112 Rx 8  B2 2D 00 00 05 00 00 00 
    281      4399.625 DT     0213 Rx 8  00 00 00 00 00 00 00 00 
    282      4399.902 DT     0113 Rx 8  B4 2C 00 00 00 00 00 00 
    283      4400.613 DT     0211 Rx 8  00 00 00 00 00 00 00 00 
    284      4400.888 DT     0111 Rx 8  A0 40 00 00 00 00 00 00 
    285      4401.553 DT     0212 Rx 8  00 00 00 00 00 00 00 00 
    286      4401.818 DT     0112 Rx 8  3F 2E 00 00 05 00 00 00 
    287      4402.577 DT     0213 Rx 8  00 00 00 00 00 00 00 00 
    288      4402.853 DT     0113 Rx 8  B4 2C 00 00 00 00 00 00 
    289      4403.448 DT     0211 Rx 8  00 00 00 00 00 00 00 00 
    290      4403.723 DT     0111 Rx 8  A0 40 00 00 00 00 00 00 
    291      4404.505 DT     0212 Rx 8  00 00 00 00 00 00 00 00 
    292      4404.779 DT     0112 Rx 8  D4 2E 00 00 06 00 00 00 
    293      4405.495 DT     0213 Rx 8  00 00 00 00 00 00 00 00 
    294      4405.770 DT     0113 Rx 8  C3 2C 00 00 00 00 00 00 
    295      4406.895 DT     0211 Rx 8  00 00 00 00 00 00 00 00 
    296      4407.171 DT     0111 Rx 8  A0 40 00 00 00 00 00 00 
    297      4407.553 DT     0212 Rx 8  00 00 00 00 00 00 00 00 
    298      4407.837 DT     0112 Rx 8  68 2F 00 00 06 00 00 00 
    299      4408.493 DT     0213 Rx 8  00 00 00 00 00 00 00 00 
    300      4408.767 DT     0113 Rx 8  D2 2C 00 00 00 00 00 00 
    301      4409.435 DT     0211 Rx 8  00 00 00 00 00 00 00 00 
    302      4409.711 DT     0111 Rx 8  A0 40 00 00 00 00 00 00 
    303      4410.496 DT     0212 Rx 8  00 00 00 00 00 00 00 00 
    304      4410.772 DT     0112 Rx 8  04 30 00 00 06 00 00 00 
    305      4411.466 DT     0213 Rx 8  00 00 00 00 00 00 00 00 
    306      4411.740 DT     0113 Rx 8  D2 2C 00 00 00 00 00 00 
    307      4412.487 DT     0211 Rx 8  00 00 00 00 00 00 00 00 
    308      4412.761 DT     0111 Rx 8  A0 40 00 00 00 00 00 00 
    309      4413.420 DT     0212 Rx 8  00 00 00 00 00 00 00 00 
    310      4413.695 DT     0112 Rx 8  9F 30 00 00 07 00 00 00 
    311      4414.534 DT     0213 Rx 8  00 00 00 00 00 00 00 00 
    312      4414.797 DT     0113 Rx 8  D2 2C 00 00 00 00 00 00 
    313      4415.444 DT     0211 Rx 8  00 00 00 00 00 00 00 00 
    314      4415.720 DT     0111 Rx 8  A0 40 00 00 00 00 00 00 
    315      4422.523 DT     0212 Rx 8  00 00 00 00 00 00 00 00 
    316      4422.816 DT     0112 Rx 8  47 32 00 00 07 00 00 00 
    317      4423.760 DT     0213 Rx 8  00 00 00 00 00 00 00 00 
    318      4424.065 DT     0113 Rx 8  D2 2C 00 00 00 00 00 00 
    319      4425.005 DT     0211 Rx 8  00 00 00 00 00 00 00 00 
    320      4425.307 DT     0111 Rx 8  A0 40 00 00 00 00 00 00 
    321      4425.627 DT     0212 Rx 8  00 00 00 00 00 00 00 00 
    322      4425.944 DT     0112 Rx 8  C5 32 00 00 07 00 00 00 
    323      4426.636 DT     0213 Rx 8  00 00 00 00 00 00 00 00 
    324      4426.935 DT     0113 Rx 8  D2 2C 00 00 00 00 00 00 
    325      4427.482 DT     0211 Rx 8  00 00 00 00 00 00 00 00 
    326      4427.765 DT     0111 Rx 8  A0 40 00 00 00 00 00 00 
    327      4428.452 DT     0212 Rx 8  00 00 00 00 00 00 00 00 
    328      4428.727 DT     0112 Rx 8  3E 33 00 00 07 00 00 00 
    329      4429.466 DT     0213 Rx 8  00 00 00 00 00 00 00 00 
    330      4429.743 DT     0113 Rx 8  D2 2C 00 00 00 00 00 00 
    331      4430.485 DT     0211 Rx 8  00 00 00 00 00 00 00 00 
    332      4430.759 DT     0111 Rx 8  A0 40 00 00 00 00 00 00 
    333      4431.487 DT     0212 Rx 8  00 00 00 00 00 00 00 00 
    334      4431.775 DT     0112 Rx 8  AF 33 00 00 06 00 00 00 
    335      4433.524 DT     0213 Rx 8  00 00 00 00 00 00 00 00 
    336      4433.800 DT     0113 Rx 8  D2 2C 00 00 00 00 00 00 
    337      4434.512 DT     0211 Rx 8  00 00 00 00 00 00 00 00 
    338      4434.789 DT     0111 Rx 8  98 40 00 00 00 00 00 00 
    339      4435.443 DT     0212 Rx 8  00 00 00 00 00 00 00 00 
    340      4435.719 DT     0112 Rx 8  2B 34 00 00 06 00 00 00 
    341      4436.513 DT     0213 Rx 8  00 00 00 00 00 00 00 00 
    342      4436.791 DT     0113 Rx 8  D2 2C 00 00 00 00 00 00 
    343      4438.187 DT     0211 Rx 8  00 00 00 00 00 00 00 00 
    344      4438.462 DT     0111 Rx 8  95 40 00 00 00 00 00 00 
    345      4438.622 DT     0212 Rx 8  00 00 00 00 00 00 00 00 
    346      4438.896 DT     0112 Rx 8  76 34 00 00 05 00 00 00 
    347      4439.745 DT     0213 Rx 8  00 00 00 00 00 00 00 00 
    348      4440.036 DT     0113 Rx 8  D2 2C 00 00 00 00 00 00 
    349      4441.388 DT     0211 Rx 8  00 00 00 00 00 00 00 00 
    350      4441.671 DT     0111 Rx 8  8A 40 00 00 00 00 00 00 
    351      4442.610 DT     0212 Rx 8  00 00 00 00 00 00 00 00 
    352      4442.883 DT     0112 Rx 8  C1 34 00 00 05 00 00 00 
    353      4443.615 DT     0213 Rx 8  00 00 00 00 00 00 00 00 
    354      4443.897 DT     0113 Rx 8  D2 2C 00 00 00 00 00 00 
    355      4444.993 DT     0211 Rx 8  00 00 00 00 00 00 00 00 
    356      4445.269 DT     0111 Rx 8  7B 40 00 00 00 00 00 00 
    357      4445.386 DT     0212 Rx 8  00 00 00 00 00 00 00 00 
    358      4445.659 DT     0112 Rx 8  E9 34 00 00 04 00 00 00 
    359      4446.394 DT     0213 Rx 8  00 00 00 00 00 00 00 00 
    360      4446.667 DT     0113 Rx 8  D2 2C 00 00 00 00 00 00 
    361      4447.359 DT     0211 Rx 8  00 00 00 00 00 00 00 00 
    362      4447.636 DT     0111 Rx 8  70 40 00 00 00 00 00 00 
    363      4451.963 DT     0212 Rx 8  00 00 00 00 00 00 00 00 
    364      4452.243 DT     0112 Rx 8  00 35 00 00 02 00 00 00 
    365      4452.776 DT     0213 Rx 8  00 00 00 00 00 00 00 00 
    366      4453.051 DT     0113 Rx 8  D2 2C 00 00 00 00 00 00 
    367      4453.323 DT     0211 Rx 8  00 00 00 00 00 00 00 00 
    368      4453.599 DT     0111 Rx 8  3C 40 00 00 00 00 00 00 
    369      4454.451 DT     0212 Rx 8  00 00 00 00 00 00 00 00 
    370      4454.724 DT     0112 Rx 8  F4 34 00 00 02 00 00 00 
    371      4455.371 DT     0213 Rx 8  00 00 00 00 00 00 00 00 
    372      4455.646 DT     0113 Rx 8  D2 2C 00 00 00 00 00 00 
    373      4471.851 DT     0211 Rx 8  00 00 00 00 00 00 00 00 
    374      4472.125 DT     0111 Rx 8  DE 3E 00 00 FE FF 00 00 
    375      4472.376 DT     0212 Rx 8  00 00 00 00 00 00 00 00 
    376      4472.650 DT     0112 Rx 8  DF 33 00 00 FF FF 00 00 
    377      4473.760 DT     0213 Rx 8  00 00 00 00 00 00 00 00 
    378      4474.036 DT     0113 Rx 8  D2 2C 00 00 00 00 00 00 
    379      4474.675 DT     0211 Rx 8  00 00 00 00 00 00 00 00 
    380      4474.976 DT     0111 Rx 8  86 3E 00 00 FD FF 00 00 
    381      4475.406 DT     0212 Rx 8  00 00 00 00 00 00 00 00 
    382      4475.678 DT     0112 Rx 8  97 33 00 00 FE FF 00 00 
    383      4476.408 DT     0213 Rx 8  00 00 00 00 00 00 00 00 
    384      4476.683 DT     0113 Rx 8  D2 2C 00 00 00 00 00 00 
    385      4477.350 DT     0211 Rx 8  00 00 00 00 00 00 00 00 
    386      4477.652 DT     0111 Rx 8  45 3E 00 00 FD FF 00 00 
    387      4478.341 DT     0212 Rx 8  00 00 00 00 00 00 00 00 
    388      4478.644 DT     0112 Rx 8  46 33 00 00 FE FF 00 00 
    389      4479.407 DT     0213 Rx 8  00 00 00 00 00 00 00 00 
    390      4479.720 DT     0113 Rx 8  D2 2C 00 00 00 00 00 00 
    391      4480.476 DT     0211 Rx 8  00 00 00 00 00 00 00 00 
    392      4480.788 DT     0111 Rx 8  B5 3D 00 00 FC FF 00 00 
    393      4498.630 DT     0212 Rx 8  00 00 00 00 00 00 00 00 
    394      4498.942 DT     0112 Rx 8  0C 30 00 00 FA FF 00 00 
    395      4499.913 DT     0213 Rx 8  00 00 00 00 00 00 00 00 
    396      4500.220 DT     0113 Rx 8  B4 2C 00 00 00 00 00 00 
    397      4500.412 DT     0211 Rx 8  00 00 00 00 00 00 00 00 
    398      4500.717 DT     0111 Rx 8  52 3A 00 00 F9 FF 00 00 
    399      4501.330 DT     0212 Rx 8  00 00 00 00 00 00 00 00 
    400      4501.635 DT     0112 Rx 8  5C 2F 00 00 F9 FF 00 00 
    401      4502.473 DT     0213 Rx 8  00 00 00 00 00 00 00 00 
    402      4502.779 DT     0113 Rx 8  B4 2C 00 00 00 00 00 00 
    403      4503.313 DT     0211 Rx 8  00 00 00 00 00 00 00 00 
    404      4503.595 DT     0111 Rx 8  BE 39 00 00 F9 FF 00 00 
    405      4516.379 DT     0212 Rx 8  00 00 00 00 00 00 00 00 
    406      4516.699 DT     0112 Rx 8  37 2B 00 00 F6 FF 00 00 
    407      4517.363 DT     0213 Rx 8  00 00 00 00 00 00 00 00 
    408      4517.669 DT     0113 Rx 8  A5 2C 00 00 00 00 00 00 
    409      4518.371 DT     0211 Rx 8  00 00 00 00 00 00 00 00 
    410      4518.712 DT     0111 Rx 8  B6 36 00 00 F8 FF 00 00 
    411      4519.349 DT     0212 Rx 8  00 00 00 00 00 00 00 00 
    412      4519.659 DT     0112 Rx 8  48 2A 00 00 F5 FF 00 00 
    413      4520.379 DT     0213 Rx 8  00 00 00 00 00 00 00 00 
    414      4520.666 DT     0113 Rx 8  A5 2C 00 00 00 00 00 00 
    415      4521.232 DT     0211 Rx 8  00 00 00 00 00 00 00 00 
    416      4521.531 DT     0111 Rx 8  16 36 00 00 F8 FF 00 00 
    417      4522.264 DT     0212 Rx 8  00 00 00 00 00 00 00 00 
    418      4522.558 DT     0112 Rx 8  4F 29 00 00 F5 FF 00 00 
    419      4523.632 DT     0213 Rx 8  00 00 00 00 00 00 00 00 
    420      4523.908 DT     0113 Rx 8  A5 2C 00 00 00 00 00 00 
    421      4524.343 DT     0211 Rx 8  00 00 00 00 00 00 00 00 
    422      4524.733 DT     0111 Rx 8  76 35 00 00 F8 FF 00 00 
    423      4525.275 DT     0212 Rx 8  00 00 00 00 00 00 00 00 
    424      4525.571 DT     0112 Rx 8  41 28 00 00 F4 FF 00 00 
    425      4526.199 DT     0213 Rx 8  00 00 00 00 00 00 00 00 
    426      4526.501 DT     0113 Rx 8  A5 2C 00 00 00 00 00 00 
    427      4527.147 DT     0211 Rx 8  00 00 00 00 00 00 00 00 
    428      4527.430 DT     0111 Rx 8  D8 34 00 00 F8 FF 00 00 
    429      4528.249 DT     0212 Rx 8  00 00 00 00 00 00 00 00 
    430      4528.550 DT     0112 Rx 8  28 27 00 00 F3 FF 00 00 
    431      4529.128 DT     0213 Rx 8  00 00 00 00 00 00 00 00 
    432      4529.428 DT     0113 Rx 8  A5 2C 00 00 00 00 00 00 
    433      4530.392 DT     0211 Rx 8  00 00 00 00 00 00 00 00 
    434      4530.689 DT     0111 Rx 8  42 34 00 00 F8 FF 00 00 
    435      4531.258 DT     0212 Rx 8  00 00 00 00 00 00 00 00 
    436      4531.557 DT     0112 Rx 8  03 26 00 00 F3 FF 00 00 
    437      4532.253 DT     0213 Rx 8  00 00 00 00 00 00 00 00 
    438      4532.553 DT     0113 Rx 8  A5 2C 00 00 00 00 00 00 
    439      4533.186 DT     0211 Rx 8  00 00 00 00 00 00 00 00 
    440      4533.485 DT     0111 Rx 8  A7 33 00 00 F8 FF 00 00 
    441      4534.240 DT     0212 Rx 8  00 00 00 00 00 00 00 00 
    442      4534.542 DT     0112 Rx 8  D3 24 00 00 F2 FF 00 00 
    443      4535.191 DT     0213 Rx 8  00 00 00 00 00 00 00 00 
    444      4535.495 DT     0113 Rx 8  A5 2C 00 00 00 00 00 00 
    445      4547.849 DT     0211 Rx 8  00 00 00 00 00 00 00 00 
    446      4548.201 DT     0212 Rx 8  00 00 00 00 00 00 00 00 
    447      4548.143 DT     0111 Rx 8  C7 30 00 00 F8 FF 00 00 
    448      4548.502 DT     0112 Rx 8  D9 1E 00 00 EF FF 00 00 
    449      4549.253 DT     0213 Rx 8  00 00 00 00 00 00 00 00 
    450      4549.557 DT     0113 Rx 8  A5 2C 00 00 00 00 00 00 
    451      4550.155 DT     0211 Rx 8  00 00 00 00 00 00 00 00 
    452      4550.478 DT     0111 Rx 8  67 30 00 00 F8 FF 00 00 
    453      4551.167 DT     0212 Rx 8  00 00 00 00 00 00 00 00 
    454      4551.469 DT     0112 Rx 8  79 1D 00 00 EF FF 00 00 
    455      4552.216 DT     0213 Rx 8  00 00 00 00 00 00 00 00 
    456      4552.575 DT     0113 Rx 8  97 2C 00 00 00 00 00 00 
    457      4553.121 DT     0211 Rx 8  00 00 00 00 00 00 00 00 
    458      4553.420 DT     0111 Rx 8  D3 2F 00 00 F8 FF 00 00 
    459      4554.246 DT     0212 Rx 8  00 00 00 00 00 00 00 00 
    460      4554.581 DT     0112 Rx 8  16 1C 00 00 EE FF 00 00 
    461      4555.243 DT     0213 Rx 8  00 00 00 00 00 00 00 00 
    462      4555.526 DT     0113 Rx 8  87 2C 00 00 00 00 00 00 
    463      4556.328 DT     0211 Rx 8  00 00 00 00 00 00 00 00 
    464      4556.614 DT     0111 Rx 8  49 2F 00 00 F8 FF 00 00 
    465      4557.202 DT     0212 Rx 8  00 00 00 00 00 00 00 00 
    466      4557.476 DT     0112 Rx 8  B6 1A 00 00 EE FF 00 00 
    467      4558.584 DT     0213 Rx 8  00 00 00 00 00 00 00 00 
    468      4558.884 DT     0113 Rx 8  78 2C 00 00 00 00 00 00 
    469      4559.542 DT     0211 Rx 8  00 00 00 00 00 00 00 00 
    470      4559.826 DT     0111 Rx 8  93 2E 00 00 F8 FF 00 00 
    471      4574.676 DT     0212 Rx 8  00 00 00 00 00 00 00 00 
    472      4574.970 DT     0112 Rx 8  1C 12 00 00 EB FF 00 00 
    473      4575.633 DT     0213 Rx 8  00 00 00 00 00 00 00 00 
    474      4575.930 DT     0113 Rx 8  00 2C 00 00 FF FF 00 00 
    475      4577.218 DT     0211 Rx 8  00 00 00 00 00 00 00 00 
    476      4577.512 DT     0111 Rx 8  16 2C 00 00 FA FF 00 00 
    477      4578.143 DT     0212 Rx 8  00 00 00 00 00 00 00 00 
    478      4578.415 DT     0112 Rx 8  ED 0F 00 00 EB FF 00 00 
    479      4579.051 DT     0213 Rx 8  00 00 00 00 00 00 00 00 
    480      4579.324 DT     0113 Rx 8  F1 2B 00 00 00 00 00 00 
    481      4580.033 DT     0211 Rx 8  00 00 00 00 00 00 00 00 
    482      4580.306 DT     0111 Rx 8  BB 2B 00 00 FA FF 00 00 
    483      4580.994 DT     0212 Rx 8  00 00 00 00 00 00 00 00 
    484      4581.268 DT     0112 Rx 8  3F 0E 00 00 EA FF 00 00 
    485      4582.019 DT     0213 Rx 8  00 00 00 00 00 00 00 00 
    486      4582.292 DT     0113 Rx 8  E2 2B 00 00 00 00 00 00 
    487      4582.972 DT     0211 Rx 8  00 00 00 00 00 00 00 00 
    488      4583.245 DT     0111 Rx 8  60 2B 00 00 FB FF 00 00 
    489      4584.025 DT     0212 Rx 8  00 00 00 00 00 00 00 00 
    490      4584.298 DT     0112 Rx 8  8B 0C 00 00 EA FF 00 00 
    491      4584.978 DT     0213 Rx 8  00 00 00 00 00 00 00 00 
    492      4585.252 DT     0113 Rx 8  D3 2B 00 00 00 00 00 00 
    493      4586.032 DT     0211 Rx 8  00 00 00 00 00 00 00 00 
    494      4586.307 DT     0111 Rx 8  0F 2B 00 00 FB FF 00 00 
    495      4586.966 DT     0212 Rx 8  00 00 00 00 00 00 00 00 
    496      4587.238 DT     0112 Rx 8  70 0B 00 00 E9 FF 00 00 
    497      4588.001 DT     0213 Rx 8  00 00 00 00 00 00 00 00 
    498      4588.275 DT     0113 Rx 8  D3 2B 00 00 00 00 00 00 
    499      4588.997 DT     0211 Rx 8  00 00 00 00 00 00 00 00 
    500      4589.270 DT     0111 Rx 8  BD 2A 00 00 FB FF 00 00 
    501      4590.377 DT     0212 Rx 8  00 00 00 00 00 00 00 00 
    502      4590.651 DT     0112 Rx 8  14 09 00 00 E9 FF 00 00 
    503      4590.977 DT     0213 Rx 8  00 00 00 00 00 00 00 00 
    504      4591.251 DT     0113 Rx 8  D3 2B 00 00 00 00 00 00 
    505      4592.011 DT     0211 Rx 8  00 00 00 00 00 00 00 00 
    506      4592.286 DT     0111 Rx 8  70 2A 00 00 FB FF 00 00 
    507      4592.949 DT     0212 Rx 8  00 00 00 00 00 00 00 00 
    508      4593.221 DT     0112 Rx 8  E2 07 00 00 E8 FF 00 00 
    509      4594.003 DT     0213 Rx 8  00 00 00 00 00 00 00 00 
    510      4594.277 DT     0113 Rx 8  D3 2B 00 00 00 00 00 00 
    511      4594.961 DT     0211 Rx 8  00 00 00 00 00 00 00 00 
    512      4595.234 DT     0111 Rx 8  2C 2A 00 00 FC FF 00 00 
    513      4595.992 DT     0212 Rx 8  00 00 00 00 00 00 00 00 
    514      4596.266 DT     0112 Rx 8  7D 05 00 00 E8 FF 00 00 
    515      4597.015 DT     0213 Rx 8  00 00 00 00 00 00 00 00 
    516      4597.290 DT     0113 Rx 8  D3 2B 00 00 00 00 00 00 
    517      4598.063 DT     0211 Rx 8  00 00 00 00 00 00 00 00 
    518      4598.336 DT     0111 Rx 8  F2 29 00 00 FC FF 00 00 
    519      4598.995 DT     0212 Rx 8  00 00 00 00 00 00 00 00 
    520      4599.268 DT     0112 Rx 8  A9 03 00 00 E8 FF 00 00 
    521      4609.847 DT     0213 Rx 8  00 00 00 00 00 00 00 00 
    522      4610.120 DT     0113 Rx 8  B5 2B 00 00 00 00 00 00 
    523      4610.423 DT     0211 Rx 8  00 00 00 00 00 00 00 00 
    524      4610.724 DT     0111 Rx 8  2B 29 00 00 FD FF 00 00 
    525      4611.106 DT     0212 Rx 8  00 00 00 00 00 00 00 00 
    526      4611.407 DT     0112 Rx 8  CF FB FF 00 E5 FF 00 00 
    527      4612.019 DT     0213 Rx 8  00 00 00 00 00 00 00 00 
    528      4612.327 DT     0113 Rx 8  A6 2B 00 00 00 00 00 00 
    529      4613.098 DT     0211 Rx 8  00 00 00 00 00 00 00 00 
    530      4613.404 DT     0111 Rx 8  FF 28 00 00 FD FF 00 00 
    531      4613.995 DT     0212 Rx 8  00 00 00 00 00 00 00 00 
    532      4614.291 DT     0112 Rx 8  C5 F9 FF 00 E5 FF 00 00 
    533      4614.999 DT     0213 Rx 8  00 00 00 00 00 00 00 00 
    534      4615.300 DT     0113 Rx 8  A6 2B 00 00 00 00 00 00 
    535      4617.149 DT     0211 Rx 8  00 00 00 00 00 00 00 00 
    536      4617.440 DT     0111 Rx 8  CE 28 00 00 FE FF 00 00 
    537      4619.233 DT     0212 Rx 8  00 00 00 00 00 00 00 00 
    538      4619.553 DT     0112 Rx 8  4E F6 FF 00 E4 FF 00 00 
    539      4621.507 DT     0213 Rx 8  00 00 00 00 00 00 00 00 
    540      4621.819 DT     0113 Rx 8  79 2B 00 00 00 00 00 00 
    541      4639.141 DT     0211 Rx 8  00 00 00 00 00 00 00 00 
    542      4639.420 DT     0111 Rx 8  6D 28 00 00 00 00 00 00 
    543      4641.046 DT     0212 Rx 8  00 00 00 00 00 00 00 00 
    544      4641.350 DT     0112 Rx 8  25 E7 FF 00 E4 FF 00 00 
    545      4642.040 DT     0213 Rx 8  00 00 00 00 00 00 00 00 
    546      4642.350 DT     0113 Rx 8  B6 2A 00 00 FF FF 00 00 
    547      4643.041 DT     0211 Rx 8  00 00 00 00 00 00 00 00 
    548      4643.345 DT     0111 Rx 8  6D 28 00 00 00 00 00 00 
    549      4643.891 DT     0212 Rx 8  00 00 00 00 00 00 00 00 
    550      4644.188 DT     0112 Rx 8  BF E5 FF 00 E4 FF 00 00 
    551      4644.971 DT     0213 Rx 8  00 00 00 00 00 00 00 00 
    552      4645.274 DT     0113 Rx 8  89 2A 00 00 FF FF 00 00 
    553      4646.004 DT     0211 Rx 8  00 00 00 00 00 00 00 00 
    554      4646.279 DT     0111 Rx 8  6D 28 00 00 00 00 00 00 
    555      4646.925 DT     0212 Rx 8  00 00 00 00 00 00 00 00 
    556      4647.196 DT     0112 Rx 8  B0 E3 FF 00 E4 FF 00 00 
    557      4647.866 DT     0213 Rx 8  00 00 00 00 00 00 00 00 
    558      4648.140 DT     0113 Rx 8  6B 2A 00 00 FF FF 00 00 
    559      4649.008 DT     0211 Rx 8  00 00 00 00 00 00 00 00 
    560      4649.284 DT     0111 Rx 8  6D 28 00 00 00 00 00 00 
    561      4649.909 DT     0212 Rx 8  00 00 00 00 00 00 00 00 
    562      4650.192 DT     0112 Rx 8  A1 E1 FF 00 E4 FF 00 00 
    563      4650.941 DT     0213 Rx 8  00 00 00 00 00 00 00 00 
    564      4651.215 DT     0113 Rx 8  4E 2A 00 00 FF FF 00 00 
    565      4651.868 DT     0211 Rx 8  00 00 00 00 00 00 00 00 
    566      4652.143 DT     0111 Rx 8  6D 28 00 00 00 00 00 00 
    567      4652.959 DT     0212 Rx 8  00 00 00 00 00 00 00 00 
    568      4653.217 DT     0112 Rx 8  8C DF FF 00 E4 FF 00 00 
    569      4654.615 DT     0213 Rx 8  00 00 00 00 00 00 00 00 
    570      4654.904 DT     0113 Rx 8  21 2A 00 00 FF FF 00 00 
    571      4654.994 DT     0211 Rx 8  00 00 00 00 00 00 00 00 
    572      4655.269 DT     0111 Rx 8  6D 28 00 00 00 00 00 00 
    573      4655.870 DT     0212 Rx 8  00 00 00 00 00 00 00 00 
    574      4656.143 DT     0112 Rx 8  81 DD FF 00 E4 FF 00 00 
    575      4657.169 DT     0213 Rx 8  00 00 00 00 00 00 00 00 
    576      4657.443 DT     0113 Rx 8  02 2A 00 00 FF FF 00 00 
    577      4657.881 DT     0211 Rx 8  00 00 00 00 00 00 00 00 
    578      4658.156 DT     0111 Rx 8  6D 28 00 00 00 00 00 00 
    579      4658.934 DT     0212 Rx 8  00 00 00 00 00 00 00 00 
    580      4659.222 DT     0112 Rx 8  85 DB FF 00 E4 FF 00 00 
    581      4659.815 DT     0213 Rx 8  00 00 00 00 00 00 00 00 
    582      4660.089 DT     0113 Rx 8  E4 29 00 00 FF FF 00 00 
    583      4660.943 DT     0211 Rx 8  00 00 00 00 00 00 00 00 
    584      4661.218 DT     0111 Rx 8  6D 28 00 00 00 00 00 00 
    585      4661.944 DT     0212 Rx 8  00 00 00 00 00 00 00 00 
    586      4662.214 DT     0112 Rx 8  7B D9 FF 00 E4 FF 00 00 
    587      4662.986 DT     0213 Rx 8  00 00 00 00 00 00 00 00 
    588      4663.261 DT     0113 Rx 8  C6 29 00 00 FF FF 00 00 
    589      4663.839 DT     0211 Rx 8  00 00 00 00 00 00 00 00 
    590      4664.115 DT     0111 Rx 8  6D 28 00 00 00 00 00 00 
    591      4664.881 DT     0212 Rx 8  00 00 00 00 00 00 00 00 
    592      4665.153 DT     0112 Rx 8  77 D7 FF 00 E4 FF 00 00 
    593      4665.914 DT     0213 Rx 8  00 00 00 00 00 00 00 00 
    594      4666.189 DT     0113 Rx 8  99 29 00 00 FF FF 00 00 
    595      4666.952 DT     0211 Rx 8  00 00 00 00 00 00 00 00 
    596      4667.227 DT     0111 Rx 8  6D 28 00 00 00 00 00 00 
    597      4667.846 DT     0212 Rx 8  00 00 00 00 00 00 00 00 
    598      4668.120 DT     0112 Rx 8  83 D5 FF 00 E5 FF 00 00 
    599      4668.904 DT     0213 Rx 8  00 00 00 00 00 00 00 00 
    600      4669.178 DT     0113 Rx 8  6C 29 00 00 FE FF 00 00 
    601      4669.831 DT     0211 Rx 8  00 00 00 00 00 00 00 00 
    602      4670.107 DT     0111 Rx 8  6D 28 00 00 00 00 00 00 
    603      4670.857 DT     0212 Rx 8  00 00 00 00 00 00 00 00 
    604      4671.129 DT     0112 Rx 8  9F D3 FF 00 E5 FF 00 00 
    605      4671.894 DT     0213 Rx 8  00 00 00 00 00 00 00 00 
    606      4672.169 DT     0113 Rx 8  3F 29 00 00 FE FF 00 00 
    607      4672.911 DT     0211 Rx 8  00 00 00 00 00 00 00 00 
    608      4673.187 DT     0111 Rx 8  6D 28 00 00 00 00 00 00 
    609      4673.898 DT     0212 Rx 8  00 00 00 00 00 00 00 00 
    610      4674.169 DT     0112 Rx 8  B9 D1 FF 00 E5 FF 00 00 
    611      4674.884 DT     0213 Rx 8  00 00 00 00 00 00 00 00 
    612      4675.158 DT     0113 Rx 8  12 29 00 00 FE FF 00 00 
    613      4675.873 DT     0211 Rx 8  00 00 00 00 00 00 00 00 
    614      4676.148 DT     0111 Rx 8  6D 28 00 00 00 00 00 00 
    615      4676.823 DT     0212 Rx 8  00 00 00 00 00 00 00 00 
    616      4677.094 DT     0112 Rx 8  E3 CF FF 00 E6 FF 00 00 
    617      4677.889 DT     0213 Rx 8  00 00 00 00 00 00 00 00 
    618      4678.162 DT     0113 Rx 8  D7 28 00 00 FE FF 00 00 
    619      4678.873 DT     0211 Rx 8  00 00 00 00 00 00 00 00 
    620      4679.148 DT     0111 Rx 8  6D 28 00 00 00 00 00 00 
    621      4679.868 DT     0212 Rx 8  00 00 00 00 00 00 00 00 
    622      4680.153 DT     0112 Rx 8  22 CE FF 00 E7 FF 00 00 
    623      4680.869 DT     0213 Rx 8  00 00 00 00 00 00 00 00 
    624      4681.143 DT     0113 Rx 8  9A 28 00 00 FE FF 00 00 
    625      4681.871 DT     0211 Rx 8  00 00 00 00 00 00 00 00 
    626      4682.146 DT     0111 Rx 8  6D 28 00 00 00 00 00 00 
    627      4682.918 DT     0212 Rx 8  00 00 00 00 00 00 00 00 
    628      4683.189 DT     0112 Rx 8  70 CC FF 00 E7 FF 00 00 
    629      4683.870 DT     0213 Rx 8  00 00 00 00 00 00 00 00 
    630      4684.156 DT     0113 Rx 8  5E 28 00 00 FE FF 00 00 
    631      4704.869 DT     0211 Rx 8  00 00 00 00 00 00 00 00 
    632      4705.143 DT     0111 Rx 8  59 28 00 00 00 00 00 00 
    633      4705.404 DT     0212 Rx 8  00 00 00 00 00 00 00 00 
    634      4705.660 DT     0112 Rx 8  6C C1 FF 00 EE FF 00 00 
    635      4706.099 DT     0213 Rx 8  00 00 00 00 00 00 00 00 
    636      4706.399 DT     0113 Rx 8  61 26 00 00 FD FF 00 00 
    637      4707.466 DT     0211 Rx 8  00 00 00 00 00 00 00 00 
    638      4707.738 DT     0111 Rx 8  4F 28 00 00 00 00 00 00 
    639      4707.929 DT     0212 Rx 8  00 00 00 00 00 00 00 00 
    640      4708.230 DT     0112 Rx 8  A8 C0 FF 00 EE FF 00 00 
    641      4708.747 DT     0213 Rx 8  00 00 00 00 00 00 00 00 
    642      4709.050 DT     0113 Rx 8  33 26 00 00 FD FF 00 00 
    643      4709.738 DT     0211 Rx 8  00 00 00 00 00 00 00 00 
    644      4710.033 DT     0111 Rx 8  4A 28 00 00 00 00 00 00 
    645      4710.766 DT     0212 Rx 8  00 00 00 00 00 00 00 00 
    646      4711.059 DT     0112 Rx 8  87 BF FF 00 EF FF 00 00 
    647      4711.783 DT     0213 Rx 8  00 00 00 00 00 00 00 00 
    648      4712.074 DT     0113 Rx 8  06 26 00 00 FD FF 00 00 
    649      4712.766 DT     0211 Rx 8  00 00 00 00 00 00 00 00 
    650      4713.071 DT     0111 Rx 8  41 28 00 00 00 00 00 00 
    651      4713.704 DT     0212 Rx 8  00 00 00 00 00 00 00 00 
    652      4714.008 DT     0112 Rx 8  72 BE FF 00 F0 FF 00 00 
    653      4714.885 DT     0213 Rx 8  00 00 00 00 00 00 00 00 
    654      4715.167 DT     0113 Rx 8  D9 25 00 00 FD FF 00 00 
    655      4733.845 DT     0211 Rx 8  00 00 00 00 00 00 00 00 
    656      4734.118 DT     0111 Rx 8  DE 27 00 00 00 00 00 00 
    657      4734.862 DT     0212 Rx 8  00 00 00 00 00 00 00 00 
    658      4735.154 DT     0112 Rx 8  B3 B8 FF 00 F6 FF 00 00 
    659      4735.737 DT     0213 Rx 8  00 00 00 00 00 00 00 00 
    660      4736.039 DT     0113 Rx 8  EA 24 00 00 FF FF 00 00 
    661      4736.766 DT     0211 Rx 8  00 00 00 00 00 00 00 00 
    662      4737.074 DT     0111 Rx 8  D0 27 00 00 00 00 00 00 
    663      4737.618 DT     0212 Rx 8  00 00 00 00 00 00 00 00 
    664      4737.916 DT     0112 Rx 8  17 B8 FF 00 F7 FF 00 00 
    665      4738.749 DT     0213 Rx 8  00 00 00 00 00 00 00 00 
    666      4739.022 DT     0113 Rx 8  CB 24 00 00 FF FF 00 00 
    667      4739.677 DT     0211 Rx 8  00 00 00 00 00 00 00 00 
    668      4739.949 DT     0111 Rx 8  C6 27 00 00 00 00 00 00 
    669      4740.801 DT     0212 Rx 8  00 00 00 00 00 00 00 00 
    670      4741.097 DT     0112 Rx 8  8A B7 FF 00 F8 FF 00 00 
    671      4741.712 DT     0213 Rx 8  00 00 00 00 00 00 00 00 
    672      4742.016 DT     0113 Rx 8  AD 24 00 00 FF FF 00 00 
    673      4742.788 DT     0211 Rx 8  00 00 00 00 00 00 00 00 
    674      4743.093 DT     0111 Rx 8  C1 27 00 00 00 00 00 00 
    675      4743.693 DT     0212 Rx 8  00 00 00 00 00 00 00 00 
    676      4743.981 DT     0112 Rx 8  0B B7 FF 00 F8 FF 00 00 
    677      4744.693 DT     0213 Rx 8  00 00 00 00 00 00 00 00 
    678      4744.995 DT     0113 Rx 8  9F 24 00 00 FF FF 00 00 
    679      4745.699 DT     0211 Rx 8  00 00 00 00 00 00 00 00 
    680      4745.999 DT     0111 Rx 8  BC 27 00 00 00 00 00 00 
    681      4746.695 DT     0212 Rx 8  00 00 00 00 00 00 00 00 
    682      4746.981 DT     0112 Rx 8  9C B6 FF 00 F9 FF 00 00 
    683      4747.668 DT     0213 Rx 8  00 00 00 00 00 00 00 00 
    684      4747.941 DT     0113 Rx 8  80 24 00 00 FF FF 00 00 
    685      4748.598 DT     0211 Rx 8  00 00 00 00 00 00 00 00 
    686      4748.872 DT     0111 Rx 8  BC 27 00 00 00 00 00 00 
    687      4749.594 DT     0212 Rx 8  00 00 00 00 00 00 00 00 
    688      4749.868 DT     0112 Rx 8  37 B6 FF 00 FA FF 00 00 
    689      4750.644 DT     0213 Rx 8  00 00 00 00 00 00 00 00 
    690      4750.917 DT     0113 Rx 8  72 24 00 00 FF FF 00 00 
    691      4751.517 DT     0211 Rx 8  00 00 00 00 00 00 00 00 
    692      4751.791 DT     0111 Rx 8  BC 27 00 00 00 00 00 00 
    693      4752.586 DT     0212 Rx 8  00 00 00 00 00 00 00 00 
    694      4752.858 DT     0112 Rx 8  DF B5 FF 00 FA FF 00 00 
    695      4753.556 DT     0213 Rx 8  00 00 00 00 00 00 00 00 
    696      4753.829 DT     0113 Rx 8  62 24 00 00 FF FF 00 00 
    697      4754.556 DT     0211 Rx 8  00 00 00 00 00 00 00 00 
    698      4754.831 DT     0111 Rx 8  BC 27 00 00 00 00 00 00 
    699      4755.519 DT     0212 Rx 8  00 00 00 00 00 00 00 00 
    700      4755.792 DT     0112 Rx 8  98 B5 FF 00 FB FF 00 00 
    701      4756.928 DT     0213 Rx 8  00 00 00 00 00 00 00 00 
    702      4757.206 DT     0113 Rx 8  62 24 00 00 FF FF 00 00 
    703      4757.505 DT     0211 Rx 8  00 00 00 00 00 00 00 00 
    704      4757.780 DT     0111 Rx 8  BC 27 00 00 00 00 00 00 
    705      4758.629 DT     0212 Rx 8  00 00 00 00 00 00 00 00 
    706      4758.901 DT     0112 Rx 8  62 B5 FF 00 FC FF 00 00 
    707      4759.522 DT     0213 Rx 8  00 00 00 00 00 00 00 00 
    708      4759.809 DT     0113 Rx 8  53 24 00 00 FF FF 00 00 
    709      4760.611 DT     0211 Rx 8  00 00 00 00 00 00 00 00 
    710      4760.889 DT     0111 Rx 8  BC 27 00 00 00 00 00 00 
    711      4761.491 DT     0212 Rx 8  00 00 00 00 00 00 00 00 
    712      4761.765 DT     0112 Rx 8  3D B5 FF 00 FC FF 00 00 
    713      4762.533 DT     0213 Rx 8  00 00 00 00 00 00 00 00 
    714      4762.806 DT     0113 Rx 8  45 24 00 00 FF FF 00 00 
    715      4763.556 DT     0211 Rx 8  00 00 00 00 00 00 00 00 
    716      4763.831 DT     0111 Rx 8  C1 27 00 00 00 00 00 00 
    717      4764.605 DT     0212 Rx 8  00 00 00 00 00 00 00 00 
    718      4764.877 DT     0112 Rx 8  2A B5 FF 00 FD FF 00 00 
    719      4765.546 DT     0213 Rx 8  00 00 00 00 00 00 00 00 
    720      4765.821 DT     0113 Rx 8  45 24 00 00 00 00 00 00 
    721      4766.852 DT     0211 Rx 8  00 00 00 00 00 00 00 00 
    722      4767.142 DT     0111 Rx 8  C1 27 00 00 00 00 00 00 
    723      4767.514 DT     0212 Rx 8  00 00 00 00 00 00 00 00 
    724      4767.786 DT     0112 Rx 8  25 B5 FF 00 FE FF 00 00 
    725      4768.631 DT     0213 Rx 8  00 00 00 00 00 00 00 00 
    726      4768.906 DT     0113 Rx 8  45 24 00 00 00 00 00 00 
    727      4769.468 DT     0211 Rx 8  00 00 00 00 00 00 00 00 
    728      4769.743 DT     0111 Rx 8  C1 27 00 00 00 00 00 00 
    729      4770.514 DT     0212 Rx 8  00 00 00 00 00 00 00 00 
    730      4770.786 DT     0112 Rx 8  25 B5 FF 00 FE FF 00 00 
    731      4771.467 DT     0213 Rx 8  00 00 00 00 00 00 00 00 
    732      4771.742 DT     0113 Rx 8  45 24 00 00 00 00 00 00 
    733      4772.650 DT     0211 Rx 8  00 00 00 00 00 00 00 00 
    734      4772.925 DT     0111 Rx 8  C6 27 00 00 00 00 00 00 
    735      4773.757 DT     0212 Rx 8  00 00 00 00 00 00 00 00 
    736      4774.030 DT     0112 Rx 8  2A B5 FF 00 FF FF 00 00 
    737      4774.505 DT     0213 Rx 8  00 00 00 00 00 00 00 00 
    738      4774.780 DT     0113 Rx 8  45 24 00 00 00 00 00 00 
    739      4775.505 DT     0211 Rx 8  00 00 00 00 00 00 00 00 
    740      4775.777 DT     0111 Rx 8  CB 27 00 00 00 00 00 00 
    741      4776.552 DT     0212 Rx 8  00 00 00 00 00 00 00 00 
    742      4776.825 DT     0112 Rx 8  35 B5 FF 00 FF FF 00 00 
    743      4777.450 DT     0213 Rx 8  00 00 00 00 00 00 00 00 
    744      4777.725 DT     0113 Rx 8  45 24 00 00 00 00 00 00 
    745      4778.547 DT     0211 Rx 8  00 00 00 00 00 00 00 00 
    746      4778.822 DT     0111 Rx 8  D0 27 00 00 00 00 00 00 
    747      4779.456 DT     0212 Rx 8  00 00 00 00 00 00 00 00 
    748      4779.731 DT     0112 Rx 8  45 B5 FF 00 00 00 00 00 
    749      4780.548 DT     0213 Rx 8  00 00 00 00 00 00 00 00 
    750      4780.823 DT     0113 Rx 8  45 24 00 00 00 00 00 00 
    751      4781.522 DT     0211 Rx 8  00 00 00 00 00 00 00 00 
    752      4781.781 DT     0111 Rx 8  D5 27 00 00 00 00 00 00 
    753      4782.606 DT     0212 Rx 8  00 00 00 00 00 00 00 00 
    754      4782.879 DT     0112 Rx 8  5D B5 FF 00 00 00 00 00 
    755      4783.484 DT     0213 Rx 8  00 00 00 00 00 00 00 00 
    756      4783.761 DT     0113 Rx 8  45 24 00 00 00 00 00 00 
    757      4784.483 DT     0211 Rx 8  00 00 00 00 00 00 00 00 
    758      4784.757 DT     0111 Rx 8  DE 27 00 00 00 00 00 00 
    759      4785.529 DT     0212 Rx 8  00 00 00 00 00 00 00 00 
    760      4785.807 DT     0112 Rx 8  7A B5 FF 00 00 00 00 00 
    761      4786.600 DT     0213 Rx 8  00 00 00 00 00 00 00 00 
    762      4786.889 DT     0113 Rx 8  45 24 00 00 00 00 00 00 
    763      4787.550 DT     0211 Rx 8  00 00 00 00 00 00 00 00 
    764      4787.824 DT     0111 Rx 8  ED 27 00 00 00 00 00 00 
    765      4788.529 DT     0212 Rx 8  00 00 00 00 00 00 00 00 
    766      4788.821 DT     0112 Rx 8  9B B5 FF 00 00 00 00 00 
    767      4789.509 DT     0213 Rx 8  00 00 00 00 00 00 00 00 
    768      4789.769 DT     0113 Rx 8  45 24 00 00 00 00 00 00 
    769      4790.553 DT     0211 Rx 8  00 00 00 00 00 00 00 00 
    770      4790.832 DT     0111 Rx 8  01 28 00 00 00 00 00 00 
    771      4791.499 DT     0212 Rx 8  00 00 00 00 00 00 00 00 
    772      4791.774 DT     0112 Rx 8  C1 B5 FF 00 00 00 00 00 
    773      4792.861 DT     0213 Rx 8  00 00 00 00 00 00 00 00 
    774      4793.136 DT     0113 Rx 8  45 24 00 00 00 00 00 00 
    775      4793.853 DT     0211 Rx 8  00 00 00 00 00 00 00 00 
    776      4794.130 DT     0111 Rx 8  19 28 00 00 00 00 00 00 
    777      4794.467 DT     0212 Rx 8  00 00 00 00 00 00 00 00 
    778      4794.753 DT     0112 Rx 8  EA B5 FF 00 00 00 00 00 
    779      4795.531 DT     0213 Rx 8  00 00 00 00 00 00 00 00 
    780      4795.806 DT     0113 Rx 8  45 24 00 00 00 00 00 00 
    781      4796.489 DT     0211 Rx 8  00 00 00 00 00 00 00 00 
    782      4796.765 DT     0111 Rx 8  32 28 00 00 00 00 00 00 
    783      4797.513 DT     0212 Rx 8  00 00 00 00 00 00 00 00 
    784      4797.788 DT     0112 Rx 8  1B B6 FF 00 01 00 00 00 
    785      4798.481 DT     0213 Rx 8  00 00 00 00 00 00 00 00 
    786      4798.756 DT     0113 Rx 8  45 24 00 00 00 00 00 00 
    787      4799.481 DT     0211 Rx 8  00 00 00 00 00 00 00 00 
    788      4799.754 DT     0111 Rx 8  4F 28 00 00 00 00 00 00 
    789      4800.452 DT     0212 Rx 8  00 00 00 00 00 00 00 00 
    790      4800.726 DT     0112 Rx 8  53 B6 FF 00 01 00 00 00 
    791      4801.500 DT     0213 Rx 8  00 00 00 00 00 00 00 00 
    792      4801.775 DT     0113 Rx 8  45 24 00 00 00 00 00 00 
    793      4802.485 DT     0211 Rx 8  00 00 00 00 00 00 00 00 
    794      4802.759 DT     0111 Rx 8  6D 28 00 00 01 00 00 00 
    795      4803.440 DT     0212 Rx 8  00 00 00 00 00 00 00 00 
    796      4803.713 DT     0112 Rx 8  8B B6 FF 00 01 00 00 00 
    797      4804.501 DT     0213 Rx 8  00 00 00 00 00 00 00 00 
    798      4804.776 DT     0113 Rx 8  45 24 00 00 00 00 00 00 
    799      4805.514 DT     0211 Rx 8  00 00 00 00 00 00 00 00 
    800      4805.788 DT     0111 Rx 8  94 28 00 00 01 00 00 00 
    801      4806.607 DT     0212 Rx 8  00 00 00 00 00 00 00 00 
    802      4806.879 DT     0112 Rx 8  C9 B6 FF 00 02 00 00 00 
    803      4807.635 DT     0213 Rx 8  00 00 00 00 00 00 00 00 
    804      4807.911 DT     0113 Rx 8  45 24 00 00 00 00 00 00 
    805      4808.703 DT     0211 Rx 8  00 00 00 00 00 00 00 00 
    806      4808.988 DT     0111 Rx 8  C5 28 00 00 01 00 00 00 
    807      4829.040 DT     0212 Rx 8  00 00 00 00 00 00 00 00 
    808      4829.321 DT     0112 Rx 8  65 B9 FF 00 04 00 00 00 
    809      4829.441 DT     0213 Rx 8  00 00 00 00 00 00 00 00 
    810      4829.761 DT     0113 Rx 8  45 24 00 00 00 00 00 00 
    811      4830.465 DT     0211 Rx 8  00 00 00 00 00 00 00 00 
    812      4830.761 DT     0111 Rx 8  AA 2A 00 00 03 00 00 00 
    813      4831.386 DT     0212 Rx 8  00 00 00 00 00 00 00 00 
    814      4831.669 DT     0112 Rx 8  B6 B9 FF 00 04 00 00 00 
    815      4832.453 DT     0213 Rx 8  00 00 00 00 00 00 00 00 
    816      4832.728 DT     0113 Rx 8  45 24 00 00 00 00 00 00 
    817      4848.102 DT     0211 Rx 8  00 00 00 00 00 00 00 00 
    818      4848.380 DT     0111 Rx 8  D9 2C 00 00 04 00 00 00 
    819      4848.426 DT     0212 Rx 8  00 00 00 00 00 00 00 00 
    820      4848.728 DT     0112 Rx 8  11 BD FF 00 07 00 00 00 
    821      4849.362 DT     0213 Rx 8  00 00 00 00 00 00 00 00 
    822      4849.672 DT     0113 Rx 8  45 24 00 00 00 00 00 00 
    823      4850.471 DT     0211 Rx 8  00 00 00 00 00 00 00 00 
    824      4850.774 DT     0111 Rx 8  46 2D 00 00 05 00 00 00 
    825      4851.414 DT     0212 Rx 8  00 00 00 00 00 00 00 00 
    826      4851.713 DT     0112 Rx 8  CE BD FF 00 08 00 00 00 
    827      4852.500 DT     0213 Rx 8  00 00 00 00 00 00 00 00 
    828      4852.800 DT     0113 Rx 8  45 24 00 00 00 00 00 00 
    829      4853.362 DT     0211 Rx 8  00 00 00 00 00 00 00 00 
    830      4853.667 DT     0111 Rx 8  8C 2D 00 00 05 00 00 00 
    831      4854.406 DT     0212 Rx 8  00 00 00 00 00 00 00 00 
    832      4854.704 DT     0112 Rx 8  95 BE FF 00 09 00 00 00 
    833      4855.383 DT     0213 Rx 8  00 00 00 00 00 00 00 00 
    834      4855.658 DT     0113 Rx 8  45 24 00 00 00 00 00 00 
    835      4856.422 DT     0211 Rx 8  00 00 00 00 00 00 00 00 
    836      4856.720 DT     0111 Rx 8  23 2E 00 00 05 00 00 00 
    837      4857.368 DT     0212 Rx 8  00 00 00 00 00 00 00 00 
    838      4857.667 DT     0112 Rx 8  66 BF FF 00 09 00 00 00 
    839      4858.401 DT     0213 Rx 8  00 00 00 00 00 00 00 00 
    840      4858.704 DT     0113 Rx 8  45 24 00 00 00 00 00 00 
    841      4859.437 DT     0211 Rx 8  00 00 00 00 00 00 00 00 
    842      4859.734 DT     0111 Rx 8  8E 2E 00 00 05 00 00 00 
    843      4860.397 DT     0212 Rx 8  00 00 00 00 00 00 00 00 
    844      4860.696 DT     0112 Rx 8  46 C0 FF 00 0A 00 00 00 
    845      4861.390 DT     0213 Rx 8  00 00 00 00 00 00 00 00 
    846      4861.693 DT     0113 Rx 8  45 24 00 00 00 00 00 00 
    847      4862.459 DT     0211 Rx 8  00 00 00 00 00 00 00 00 
    848      4862.733 DT     0111 Rx 8  FA 2E 00 00 05 00 00 00 
    849      4863.412 DT     0212 Rx 8  00 00 00 00 00 00 00 00 
    850      4863.712 DT     0112 Rx 8  26 C1 FF 00 0B 00 00 00 
    851      4864.383 DT     0213 Rx 8  00 00 00 00 00 00 00 00 
    852      4864.704 DT     0113 Rx 8  53 24 00 00 00 00 00 00 
    853      4865.442 DT     0211 Rx 8  00 00 00 00 00 00 00 00 
    854      4865.785 DT     0111 Rx 8  60 2F 00 00 05 00 00 00 
    855      4866.479 DT     0212 Rx 8  00 00 00 00 00 00 00 00 
    856      4866.812 DT     0112 Rx 8  14 C2 FF 00 0B 00 00 00 
    857      4867.382 DT     0213 Rx 8  00 00 00 00 00 00 00 00 
    858      4867.752 DT     0113 Rx 8  62 24 00 00 00 00 00 00 
    859      4868.474 DT     0211 Rx 8  00 00 00 00 00 00 00 00 
    860      4868.830 DT     0111 Rx 8  BC 2F 00 00 05 00 00 00 
    861      4869.374 DT     0212 Rx 8  00 00 00 00 00 00 00 00 
    862      4869.722 DT     0112 Rx 8  0E C3 FF 00 0C 00 00 00 
    863      4870.462 DT     0213 Rx 8  00 00 00 00 00 00 00 00 
    864      4870.826 DT     0113 Rx 8  72 24 00 00 00 00 00 00 
    865      4871.389 DT     0211 Rx 8  00 00 00 00 00 00 00 00 
    866      4871.705 DT     0111 Rx 8  0F 30 00 00 05 00 00 00 
    867      4872.808 DT     0212 Rx 8  00 00 00 00 00 00 00 00 
    868      4873.105 DT     0112 Rx 8  13 C4 FF 00 0D 00 00 00 
    869      4873.643 DT     0213 Rx 8  00 00 00 00 00 00 00 00 
    870      4873.944 DT     0113 Rx 8  80 24 00 00 00 00 00 00 
    871      4874.366 DT     0211 Rx 8  00 00 00 00 00 00 00 00 
    872      4874.666 DT     0111 Rx 8  54 30 00 00 05 00 00 00 
    873      4875.336 DT     0212 Rx 8  00 00 00 00 00 00 00 00 
    874      4875.634 DT     0112 Rx 8  25 C5 FF 00 0D 00 00 00 
    875      4876.378 DT     0213 Rx 8  00 00 00 00 00 00 00 00 
    876      4876.688 DT     0113 Rx 8  9F 24 00 00 00 00 00 00 
    877      4877.342 DT     0211 Rx 8  00 00 00 00 00 00 00 00 
    878      4877.602 DT     0111 Rx 8  7E 30 00 00 04 00 00 00 
    879      4878.444 DT     0212 Rx 8  00 00 00 00 00 00 00 00 
    880      4878.718 DT     0112 Rx 8  42 C6 FF 00 0E 00 00 00 
    881      4879.338 DT     0213 Rx 8  00 00 00 00 00 00 00 00 
    882      4879.624 DT     0113 Rx 8  AD 24 00 00 00 00 00 00 
    883      4880.302 DT     0211 Rx 8  00 00 00 00 00 00 00 00 
    884      4880.576 DT     0111 Rx 8  AC 30 00 00 04 00 00 00 
    885      4890.640 DT     0212 Rx 8  00 00 00 00 00 00 00 00 
    886      4890.912 DT     0112 Rx 8  F5 CA FF 00 10 00 00 00 
    887      4891.279 DT     0213 Rx 8  00 00 00 00 00 00 00 00 
    888      4891.553 DT     0113 Rx 8  25 25 00 00 01 00 00 00 
    889      4892.332 DT     0211 Rx 8  00 00 00 00 00 00 00 00 
    890      4892.697 DT     0111 Rx 8  DE 30 00 00 01 00 00 00 
    891      4893.395 DT     0212 Rx 8  00 00 00 00 00 00 00 00 
    892      4893.688 DT     0112 Rx 8  3D CC FF 00 11 00 00 00 
    893      4894.230 DT     0213 Rx 8  00 00 00 00 00 00 00 00 
    894      4894.571 DT     0113 Rx 8  44 25 00 00 01 00 00 00 
    895      4895.363 DT     0211 Rx 8  00 00 00 00 00 00 00 00 
    896      4895.687 DT     0111 Rx 8  D0 30 00 00 01 00 00 00 
    897      4896.385 DT     0212 Rx 8  00 00 00 00 00 00 00 00 
    898      4896.688 DT     0112 Rx 8  89 CD FF 00 11 00 00 00 
    899      4897.388 DT     0213 Rx 8  00 00 00 00 00 00 00 00 
    900      4897.719 DT     0113 Rx 8  61 25 00 00 01 00 00 00 
    901      4898.230 DT     0211 Rx 8  00 00 00 00 00 00 00 00 
    902      4898.531 DT     0111 Rx 8  C3 30 00 00 00 00 00 00 
    903      4899.343 DT     0212 Rx 8  00 00 00 00 00 00 00 00 
    904      4899.637 DT     0112 Rx 8  D6 CE FF 00 12 00 00 00 
    905      4900.290 DT     0213 Rx 8  00 00 00 00 00 00 00 00 
    906      4900.600 DT     0113 Rx 8  61 25 00 00 01 00 00 00 
    907      4901.329 DT     0211 Rx 8  00 00 00 00 00 00 00 00 
    908      4901.629 DT     0111 Rx 8  AC 30 00 00 00 00 00 00 
    909      4902.238 DT     0212 Rx 8  00 00 00 00 00 00 00 00 
    910      4902.537 DT     0112 Rx 8  2A D0 FF 00 12 00 00 00 
    911      4903.325 DT     0213 Rx 8  00 00 00 00 00 00 00 00 
    912      4903.623 DT     0113 Rx 8  61 25 00 00 00 00 00 00 
    913      4904.227 DT     0211 Rx 8  00 00 00 00 00 00 00 00 
    914      4904.531 DT     0111 Rx 8  87 30 00 00 00 00 00 00 
    915      4905.406 DT     0212 Rx 8  00 00 00 00 00 00 00 00 
    916      4905.704 DT     0112 Rx 8  8C D1 FF 00 13 00 00 00 
    917      4906.247 DT     0213 Rx 8  00 00 00 00 00 00 00 00 
    918      4906.546 DT     0113 Rx 8  52 25 00 00 00 00 00 00 
    919      4907.346 DT     0211 Rx 8  00 00 00 00 00 00 00 00 
    920      4907.646 DT     0111 Rx 8  62 30 00 00 00 00 00 00 
    921      4908.226 DT     0212 Rx 8  00 00 00 00 00 00 00 00 
    922      4908.529 DT     0112 Rx 8  F6 D2 FF 00 13 00 00 00 
    923      4909.304 DT     0213 Rx 8  00 00 00 00 00 00 00 00 
    924      4909.604 DT     0113 Rx 8  44 25 00 00 00 00 00 00 
    925      4910.242 DT     0211 Rx 8  00 00 00 00 00 00 00 00 
    926      4910.517 DT     0111 Rx 8  39 30 00 00 00 00 00 00 
    927      4911.301 DT     0212 Rx 8  00 00 00 00 00 00 00 00 
    928      4911.598 DT     0112 Rx 8  5C D4 FF 00 13 00 00 00 
    929      4912.266 DT     0213 Rx 8  00 00 00 00 00 00 00 00 
    930      4912.565 DT     0113 Rx 8  44 25 00 00 00 00 00 00 
    931      4913.292 DT     0211 Rx 8  00 00 00 00 00 00 00 00 
    932      4913.591 DT     0111 Rx 8  06 30 00 00 FF FF 00 00 
    933      4914.219 DT     0212 Rx 8  00 00 00 00 00 00 00 00 
    934      4914.516 DT     0112 Rx 8  C0 D5 FF 00 14 00 00 00 
    935      4915.299 DT     0213 Rx 8  00 00 00 00 00 00 00 00 
    936      4915.597 DT     0113 Rx 8  44 25 00 00 00 00 00 00 
    937      4916.258 DT     0211 Rx 8  00 00 00 00 00 00 00 00 
    938      4916.555 DT     0111 Rx 8  CA 2F 00 00 FF FF 00 00 
    939      4917.292 DT     0212 Rx 8  00 00 00 00 00 00 00 00 
    940      4917.570 DT     0112 Rx 8  2C D7 FF 00 14 00 00 00 
    941      4918.238 DT     0213 Rx 8  00 00 00 00 00 00 00 00 
    942      4918.529 DT     0113 Rx 8  44 25 00 00 00 00 00 00 
    943      4919.541 DT     0211 Rx 8  00 00 00 00 00 00 00 00 
    944      4919.813 DT     0111 Rx 8  72 2F 00 00 FE FF 00 00 
    945      4920.088 DT     0212 Rx 8  00 00 00 00 00 00 00 00 
    946      4920.362 DT     0112 Rx 8  A5 D8 FF 00 14 00 00 00 
    947      4921.175 DT     0213 Rx 8  00 00 00 00 00 00 00 00 
    948      4921.448 DT     0113 Rx 8  44 25 00 00 00 00 00 00 
    949      4922.260 DT     0211 Rx 8  00 00 00 00 00 00 00 00 
    950      4922.532 DT     0111 Rx 8  44 2F 00 00 FE FF 00 00 
    951      4923.268 DT     0212 Rx 8  00 00 00 00 00 00 00 00 
    952      4923.540 DT     0112 Rx 8  22 DA FF 00 14 00 00 00 
    953      4924.191 DT     0213 Rx 8  00 00 00 00 00 00 00 00 
    954      4924.465 DT     0113 Rx 8  44 25 00 00 00 00 00 00 
    955      4925.207 DT     0211 Rx 8  00 00 00 00 00 00 00 00 
    956      4925.480 DT     0111 Rx 8  FA 2E 00 00 FE FF 00 00 
    957      4926.160 DT     0212 Rx 8  00 00 00 00 00 00 00 00 
    958      4926.432 DT     0112 Rx 8  A1 DB FF 00 15 00 00 00 
    959      4927.227 DT     0213 Rx 8  00 00 00 00 00 00 00 00 
    960      4927.501 DT     0113 Rx 8  44 25 00 00 00 00 00 00 
    961      4928.153 DT     0211 Rx 8  00 00 00 00 00 00 00 00 
    962      4928.426 DT     0111 Rx 8  AA 2E 00 00 FD FF 00 00 
    963      4929.182 DT     0212 Rx 8  00 00 00 00 00 00 00 00 
    964      4929.455 DT     0112 Rx 8  1B DD FF 00 15 00 00 00 
    965      4930.085 DT     0213 Rx 8  00 00 00 00 00 00 00 00 
    966      4930.360 DT     0113 Rx 8  44 25 00 00 00 00 00 00 
    967      4931.221 DT     0211 Rx 8  00 00 00 00 00 00 00 00 
    968      4931.478 DT     0111 Rx 8  56 2E 00 00 FD FF 00 00 
    969      4932.150 DT     0212 Rx 8  00 00 00 00 00 00 00 00 
    970      4932.423 DT     0112 Rx 8  A0 DE FF 00 15 00 00 00 
    971      4933.198 DT     0213 Rx 8  00 00 00 00 00 00 00 00 
    972      4933.472 DT     0113 Rx 8  44 25 00 00 00 00 00 00 
    973      4934.401 DT     0211 Rx 8  00 00 00 00 00 00 00 00 
    974      4934.673 DT     0111 Rx 8  E1 2D 00 00 FD FF 00 00 
    975      4935.435 DT     0212 Rx 8  00 00 00 00 00 00 00 00 
    976      4935.709 DT     0112 Rx 8  2E E0 FF 00 15 00 00 00 
    977      4936.033 DT     0213 Rx 8  00 00 00 00 00 00 00 00 
    978      4936.309 DT     0113 Rx 8  44 25 00 00 00 00 00 00 
    979      4937.147 DT     0211 Rx 8  00 00 00 00 00 00 00 00 
    980      4937.419 DT     0111 Rx 8  A4 2D 00 00 FC FF 00 00 
    981      4938.134 DT     0212 Rx 8  00 00 00 00 00 00 00 00 
    982      4938.409 DT     0112 Rx 8  C3 E1 FF 00 16 00 00 00 
    983      4939.175 DT     0213 Rx 8  00 00 00 00 00 00 00 00 
    984      4939.449 DT     0113 Rx 8  44 25 00 00 00 00 00 00 
    985      4940.174 DT     0211 Rx 8  00 00 00 00 00 00 00 00 
    986      4940.448 DT     0111 Rx 8  41 2D 00 00 FC FF 00 00 
    987      4941.073 DT     0212 Rx 8  00 00 00 00 00 00 00 00 
    988      4941.347 DT     0112 Rx 8  5B E3 FF 00 16 00 00 00 
    989      4942.016 DT     0213 Rx 8  00 00 00 00 00 00 00 00 
    990      4942.290 DT     0113 Rx 8  44 25 00 00 00 00 00 00 
    991      4943.048 DT     0211 Rx 8  00 00 00 00 00 00 00 00 
    992      4943.320 DT     0111 Rx 8  D9 2C 00 00 FC FF 00 00 
    993      4944.076 DT     0212 Rx 8  00 00 00 00 00 00 00 00 
    994      4944.347 DT     0112 Rx 8  EC E4 FF 00 16 00 00 00 
    995      4945.213 DT     0213 Rx 8  00 00 00 00 00 00 00 00 
    996      4945.487 DT     0113 Rx 8  44 25 00 00 00 00 00 00 
    997      4946.085 DT     0211 Rx 8  00 00 00 00 00 00 00 00 
    998      4946.357 DT     0111 Rx 8  6C 2C 00 00 FC FF 00 00 
    999      4947.162 DT     0212 Rx 8  00 00 00 00 00 00 00 00 
   1000      4947.434 DT     0112 Rx 8  88 E6 FF 00 16 00 00 00 
   1001      4948.180 DT     0213 Rx 8  00 00 00 00 00 00 00 00 
   1002      4948.455 DT     0113 Rx 8  44 25 00 00 00 00 00 00 
   1003      4949.156 DT     0211 Rx 8  00 00 00 00 00 00 00 00 
   1004      4949.430 DT     0111 Rx 8  FE 2B 00 00 FB FF 00 00 
   1005      4950.072 DT     0212 Rx 8  00 00 00 00 00 00 00 00 
   1006      4950.351 DT     0112 Rx 8  31 E8 FF 00 17 00 00 00 
   1007      4951.152 DT     0213 Rx 8  00 00 00 00 00 00 00 00 
   1008      4951.426 DT     0113 Rx 8  44 25 00 00 00 00 00 00 
   1009      4952.070 DT     0211 Rx 8  00 00 00 00 00 00 00 00 
   1010      4952.343 DT     0111 Rx 8  87 2B 00 00 FB FF 00 00 
   1011      4953.135 DT     0212 Rx 8  00 00 00 00 00 00 00 00 
   1012      4953.409 DT     0112 Rx 8  E1 E9 FF 00 17 00 00 00 
   1013      4954.097 DT     0213 Rx 8  00 00 00 00 00 00 00 00 
   1014      4954.370 DT     0113 Rx 8  44 25 00 00 00 00 00 00 
   1015      4955.133 DT     0211 Rx 8  00 00 00 00 00 00 00 00 
   1016      4955.408 DT     0111 Rx 8  0A 2B 00 00 FB FF 00 00 
   1017      4956.034 DT     0212 Rx 8  00 00 00 00 00 00 00 00 
   1018      4956.309 DT     0112 Rx 8  89 EB FF 00 17 00 00 00 
   1019      4957.373 DT     0213 Rx 8  00 00 00 00 00 00 00 00 
   1020      4957.647 DT     0113 Rx 8  44 25 00 00 00 00 00 00 
   1021      4958.061 DT     0211 Rx 8  00 00 00 00 00 00 00 00 
   1022      4958.334 DT     0111 Rx 8  88 2A 00 00 FA FF 00 00 
   1023      4959.088 DT     0212 Rx 8  00 00 00 00 00 00 00 00 
   1024      4959.360 DT     0112 Rx 8  2E ED FF 00 17 00 00 00 
   1025      4960.226 DT     0213 Rx 8  00 00 00 00 00 00 00 00 
   1026      4960.502 DT     0113 Rx 8  44 25 00 00 00 00 00 00 
   1027      4961.113 DT     0211 Rx 8  00 00 00 00 00 00 00 00 
   1028      4961.386 DT     0111 Rx 8  06 2A 00 00 FA FF 00 00 
   1029      4962.020 DT     0212 Rx 8  00 00 00 00 00 00 00 00 
   1030      4962.275 DT     0112 Rx 8  DE EE FF 00 17 00 00 00 
   1031      4963.009 DT     0213 Rx 8  00 00 00 00 00 00 00 00 
   1032      4963.283 DT     0113 Rx 8  44 25 00 00 00 00 00 00 
   1033      4963.964 DT     0211 Rx 8  00 00 00 00 00 00 00 00 
   1034      4964.237 DT     0111 Rx 8  79 29 00 00 FA FF 00 00 
   1035      4965.008 DT     0212 Rx 8  00 00 00 00 00 00 00 00 
   1036      4965.281 DT     0112 Rx 8  90 F0 FF 00 17 00 00 00 
   1037      4966.049 DT     0213 Rx 8  00 00 00 00 00 00 00 00 
   1038      4966.324 DT     0113 Rx 8  34 25 00 00 00 00 00 00 
   1039      4967.064 DT     0211 Rx 8  00 00 00 00 00 00 00 00 
   1040      4967.319 DT     0111 Rx 8  E2 28 00 00 FA FF 00 00 
   1041      4968.072 DT     0212 Rx 8  00 00 00 00 00 00 00 00 
   1042      4968.345 DT     0112 Rx 8  43 F2 FF 00 18 00 00 00 
   1043      4969.074 DT     0213 Rx 8  00 00 00 00 00 00 00 00 
   1044      4969.358 DT     0113 Rx 8  34 25 00 00 00 00 00 00 
   1045      4969.988 DT     0211 Rx 8  00 00 00 00 00 00 00 00 
   1046      4970.262 DT     0111 Rx 8  45 28 00 00 F9 FF 00 00 
   1047      4971.069 DT     0212 Rx 8  00 00 00 00 00 00 00 00 
   1048      4971.344 DT     0112 Rx 8  ED F3 FF 00 18 00 00 00 
   1049      4972.037 DT     0213 Rx 8  00 00 00 00 00 00 00 00 
   1050      4972.325 DT     0113 Rx 8  34 25 00 00 00 00 00 00 
   1051      4973.080 DT     0211 Rx 8  00 00 00 00 00 00 00 00 
   1052      4973.355 DT     0111 Rx 8  9E 27 00 00 F9 FF 00 00 
   1053      4974.112 DT     0212 Rx 8  00 00 00 00 00 00 00 00 
   1054      4974.384 DT     0112 Rx 8  92 F5 FF 00 17 00 00 00 
   1055      4975.069 DT     0213 Rx 8  00 00 00 00 00 00 00 00 
   1056      4975.355 DT     0113 Rx 8  34 25 00 00 00 00 00 00 
   1057      4976.104 DT     0211 Rx 8  00 00 00 00 00 00 00 00 
   1058      4976.379 DT     0111 Rx 8  F7 26 00 00 F8 FF 00 00 
   1059      4977.132 DT     0212 Rx 8  00 00 00 00 00 00 00 00 
   1060      4977.406 DT     0112 Rx 8  38 F7 FF 00 17 00 00 00 
   1061      4978.107 DT     0213 Rx 8  00 00 00 00 00 00 00 00 
   1062      4978.385 DT     0113 Rx 8  25 25 00 00 00 00 00 00 
   1063      4979.155 DT     0211 Rx 8  00 00 00 00 00 00 00 00 
   1064      4979.429 DT     0111 Rx 8  4E 26 00 00 F8 FF 00 00 
   1065      4980.041 DT     0212 Rx 8  00 00 00 00 00 00 00 00 
   1066      4980.314 DT     0112 Rx 8  DF F8 FF 00 17 00 00 00 
   1067      4981.038 DT     0213 Rx 8  00 00 00 00 00 00 00 00 
   1068      4981.324 DT     0113 Rx 8  25 25 00 00 00 00 00 00 
   1069      4982.019 DT     0211 Rx 8  00 00 00 00 00 00 00 00 
   1070      4982.292 DT     0111 Rx 8  A0 25 00 00 F8 FF 00 00 
   1071      4983.041 DT     0212 Rx 8  00 00 00 00 00 00 00 00 
   1072      4983.313 DT     0112 Rx 8  86 FA FF 00 17 00 00 00 
   1073      4984.106 DT     0213 Rx 8  00 00 00 00 00 00 00 00 
   1074      4984.382 DT     0113 Rx 8  25 25 00 00 00 00 00 00 
   1075      4984.999 DT     0211 Rx 8  00 00 00 00 00 00 00 00 
   1076      4985.277 DT     0111 Rx 8  F2 24 00 00 F8 FF 00 00 
   1077      4985.951 DT     0212 Rx 8  00 00 00 00 00 00 00 00 
   1078      4986.225 DT     0112 Rx 8  18 FC FF 00 17 00 00 00 
   1079      4987.046 DT     0213 Rx 8  00 00 00 00 00 00 00 00 
   1080      4987.321 DT     0113 Rx 8  25 25 00 00 00 00 00 00 
   1081      4987.986 DT     0211 Rx 8  00 00 00 00 00 00 00 00 
   1082      4988.260 DT     0111 Rx 8  3D 24 00 00 F7 FF 00 00 
   1083      4988.987 DT     0212 Rx 8  00 00 00 00 00 00 00 00 
   1084      4989.266 DT     0112 Rx 8  A6 FD FF 00 17 00 00 00 
   1085      4990.024 DT     0213 Rx 8  00 00 00 00 00 00 00 00 
   1086      4990.299 DT     0113 Rx 8  25 25 00 00 00 00 00 00 
   1087      4991.057 DT     0211 Rx 8  00 00 00 00 00 00 00 00 
   1088      4991.331 DT     0111 Rx 8  83 23 00 00 F7 FF 00 00 
   1089      4992.918 DT     0212 Rx 8  00 00 00 00 00 00 00 00 
   1090      4993.194 DT     0112 Rx 8  B5 FF FF 00 17 00 00 00 
   1091      4993.998 DT     0213 Rx 8  00 00 00 00 00 00 00 00 
   1092      4994.283 DT     0113 Rx 8  25 25 00 00 00 00 00 00 
   1093      4994.981 DT     0211 Rx 8  00 00 00 00 00 00 00 00 
   1094      4995.254 DT     0111 Rx 8  86 22 00 00 F7 FF 00 00 
   1095      4995.966 DT     0212 Rx 8  00 00 00 00 00 00 00 00 
   1096      4996.255 DT     0112 Rx 8  41 01 00 00 16 00 00 00 
   1097      4996.939 DT     0213 Rx 8  00 00 00 00 00 00 00 00 
   1098      4997.216 DT     0113 Rx 8  25 25 00 00 00 00 00 00 
   1099      4998.466 DT     0211 Rx 8  00 00 00 00 00 00 00 00 
   1100      4998.738 DT     0111 Rx 8  87 21 00 00 F7 FF 00 00 
   1101      4999.074 DT     0212 Rx 8  00 00 00 00 00 00 00 00 
   1102      4999.358 DT     0112 Rx 8  C8 02 00 00 16 00 00 00 
   1103      5001.067 DT     0213 Rx 8  00 00 00 00 00 00 00 00 
   1104      5001.343 DT     0113 Rx 8  25 25 00 00 00 00 00 00 
   1105      5002.013 DT     0211 Rx 8  00 00 00 00 00 00 00 00 
   1106      5002.286 DT     0111 Rx 8  BB 20 00 00 F6 FF 00 00 
   1107      5002.940 DT     0212 Rx 8  00 00 00 00 00 00 00 00 
   1108      5003.216 DT     0112 Rx 8  B7 04 00 00 16 00 00 00 
   1109      5004.054 DT     0213 Rx 8  00 00 00 00 00 00 00 00 
   1110      5004.330 DT     0113 Rx 8  25 25 00 00 00 00 00 00 
   1111      5004.907 DT     0211 Rx 8  00 00 00 00 00 00 00 00 
   1112      5005.179 DT     0111 Rx 8  E3 1F 00 00 F6 FF 00 00 
   1113      5006.113 DT     0212 Rx 8  00 00 00 00 00 00 00 00 
   1114      5006.390 DT     0112 Rx 8  29 06 00 00 15 00 00 00 
   1115      5007.449 DT     0213 Rx 8  00 00 00 00 00 00 00 00 
   1116      5007.724 DT     0113 Rx 8  25 25 00 00 00 00 00 00 
   1117      5008.161 DT     0211 Rx 8  00 00 00 00 00 00 00 00 
   1118      5008.434 DT     0111 Rx 8  10 1F 00 00 F6 FF 00 00 
   1119      5008.921 DT     0212 Rx 8  00 00 00 00 00 00 00 00 
   1120      5009.197 DT     0112 Rx 8  9F 07 00 00 15 00 00 00 
   1121      5009.928 DT     0213 Rx 8  00 00 00 00 00 00 00 00 
   1122      5010.203 DT     0113 Rx 8  25 25 00 00 00 00 00 00 
   1123      5010.954 DT     0211 Rx 8  00 00 00 00 00 00 00 00 
   1124      5011.229 DT     0111 Rx 8  3C 1E 00 00 F5 FF 00 00 
   1125      5011.941 DT     0212 Rx 8  00 00 00 00 00 00 00 00 
   1126      5012.213 DT     0112 Rx 8  0F 09 00 00 15 00 00 00 
   1127      5012.961 DT     0213 Rx 8  00 00 00 00 00 00 00 00 
   1128      5013.240 DT     0113 Rx 8  17 25 00 00 00 00 00 00 
   1129      5013.918 DT     0211 Rx 8  00 00 00 00 00 00 00 00 
   1130      5014.189 DT     0111 Rx 8  72 1D 00 00 F5 FF 00 00 
   1131      5014.916 DT     0212 Rx 8  00 00 00 00 00 00 00 00 
   1132      5015.196 DT     0112 Rx 8  7E 0A 00 00 15 00 00 00 
   1133      5015.983 DT     0213 Rx 8  00 00 00 00 00 00 00 00 
   1134      5016.273 DT     0113 Rx 8  07 25 00 00 00 00 00 00 
   1135      5016.919 DT     0211 Rx 8  00 00 00 00 00 00 00 00 
   1136      5017.195 DT     0111 Rx 8  A1 1C 00 00 F5 FF 00 00 
   1137      5017.942 DT     0212 Rx 8  00 00 00 00 00 00 00 00 
   1138      5018.201 DT     0112 Rx 8  DC 0B 00 00 14 00 00 00 
   1139      5018.855 DT     0213 Rx 8  00 00 00 00 00 00 00 00 
   1140      5019.129 DT     0113 Rx 8  07 25 00 00 00 00 00 00 
   1141      5019.863 DT     0211 Rx 8  00 00 00 00 00 00 00 00 
   1142      5020.135 DT     0111 Rx 8  D0 1B 00 00 F5 FF 00 00 
   1143      5020.873 DT     0212 Rx 8  00 00 00 00 00 00 00 00 
   1144      5021.147 DT     0112 Rx 8  30 0D 00 00 14 00 00 00 
   1145      5021.925 DT     0213 Rx 8  00 00 00 00 00 00 00 00 
   1146      5022.198 DT     0113 Rx 8  07 25 00 00 00 00 00 00 
   1147      5023.124 DT     0211 Rx 8  00 00 00 00 00 00 00 00 
   1148      5023.394 DT     0111 Rx 8  FE 1A 00 00 F5 FF 00 00 
   1149      5024.188 DT     0212 Rx 8  00 00 00 00 00 00 00 00 
   1150      5024.461 DT     0112 Rx 8  87 0E 00 00 13 00 00 00 
   1151      5024.879 DT     0213 Rx 8  00 00 00 00 00 00 00 00 
   1152      5025.155 DT     0113 Rx 8  F8 24 00 00 00 00 00 00 
   1153      5025.917 DT     0211 Rx 8  00 00 00 00 00 00 00 00 
   1154      5026.190 DT     0111 Rx 8  2B 1A 00 00 F5 FF 00 00 
   1155      5026.874 DT     0212 Rx 8  00 00 00 00 00 00 00 00 
   1156      5027.145 DT     0112 Rx 8  DD 0F 00 00 13 00 00 00 
   1157      5027.916 DT     0213 Rx 8  00 00 00 00 00 00 00 00 
   1158      5028.192 DT     0113 Rx 8  F8 24 00 00 00 00 00 00 
   1159      5028.778 DT     0211 Rx 8  00 00 00 00 00 00 00 00 
   1160      5029.049 DT     0111 Rx 8  53 19 00 00 F5 FF 00 00 
   1161      5029.861 DT     0212 Rx 8  00 00 00 00 00 00 00 00 
   1162      5030.139 DT     0112 Rx 8  2E 11 00 00 13 00 00 00 
   1163      5030.841 DT     0213 Rx 8  00 00 00 00 00 00 00 00 
   1164      5031.117 DT     0113 Rx 8  F8 24 00 00 00 00 00 00 
   1165      5031.858 DT     0211 Rx 8  00 00 00 00 00 00 00 00 
   1166      5032.129 DT     0111 Rx 8  6F 18 00 00 F5 FF 00 00 
   1167      5032.859 DT     0212 Rx 8  00 00 00 00 00 00 00 00 
   1168      5033.134 DT     0112 Rx 8  7C 12 00 00 13 00 00 00 
   1169      5033.914 DT     0213 Rx 8  00 00 00 00 00 00 00 00 
   1170      5034.190 DT     0113 Rx 8  F8 24 00 00 00 00 00 00 
   1171      5034.899 DT     0211 Rx 8  00 00 00 00 00 00 00 00 
   1172      5035.174 DT     0111 Rx 8  80 17 00 00 F4 FF 00 00 
   1173      5035.854 DT     0212 Rx 8  00 00 00 00 00 00 00 00 
   1174      5036.128 DT     0112 Rx 8  C0 13 00 00 12 00 00 00 
   1175      5036.856 DT     0213 Rx 8  00 00 00 00 00 00 00 00 
   1176      5037.135 DT     0113 Rx 8  F8 24 00 00 00 00 00 00 
   1177      5038.201 DT     0211 Rx 8  00 00 00 00 00 00 00 00 
   1178      5038.472 DT     0111 Rx 8  95 16 00 00 F4 FF 00 00 
   1179      5038.858 DT     0212 Rx 8  00 00 00 00 00 00 00 00 
   1180      5039.134 DT     0112 Rx 8  F8 14 00 00 12 00 00 00 
   1181      5039.980 DT     0213 Rx 8  00 00 00 00 00 00 00 00 
   1182      5040.256 DT     0113 Rx 8  F8 24 00 00 00 00 00 00 
   1183      5040.918 DT     0211 Rx 8  00 00 00 00 00 00 00 00 
   1184      5041.202 DT     0111 Rx 8  AF 15 00 00 F4 FF 00 00 
   1185      5041.873 DT     0212 Rx 8  00 00 00 00 00 00 00 00 
   1186      5042.147 DT     0112 Rx 8  29 16 00 00 12 00 00 00 
   1187      5042.919 DT     0213 Rx 8  00 00 00 00 00 00 00 00 
   1188      5043.195 DT     0113 Rx 8  F8 24 00 00 00 00 00 00 
   1189      5043.940 DT     0211 Rx 8  00 00 00 00 00 00 00 00 
   1190      5044.212 DT     0111 Rx 8  C3 14 00 00 F4 FF 00 00 
   1191      5044.846 DT     0212 Rx 8  00 00 00 00 00 00 00 00 
   1192      5045.121 DT     0112 Rx 8  FB 16 00 00 11 00 00 00 
   1193      5045.884 DT     0213 Rx 8  00 00 00 00 00 00 00 00 
   1194      5046.160 DT     0113 Rx 8  F8 24 00 00 00 00 00 00 
   1195      5046.885 DT     0211 Rx 8  00 00 00 00 00 00 00 00 
   1196      5047.160 DT     0111 Rx 8  DC 13 00 00 F4 FF 00 00 
   1197      5047.934 DT     0212 Rx 8  00 00 00 00 00 00 00 00 
   1198      5048.208 DT     0112 Rx 8  8E 18 00 00 11 00 00 00 
   1199      5048.836 DT     0213 Rx 8  00 00 00 00 00 00 00 00 
   1200      5049.112 DT     0113 Rx 8  F8 24 00 00 00 00 00 00 
   1201      5049.941 DT     0211 Rx 8  00 00 00 00 00 00 00 00 
   1202      5050.211 DT     0111 Rx 8  EE 12 00 00 F4 FF 00 00 
   1203      5050.837 DT     0212 Rx 8  00 00 00 00 00 00 00 00 
   1204      5051.110 DT     0112 Rx 8  58 19 00 00 11 00 00 00 
   1205      5051.832 DT     0213 Rx 8  00 00 00 00 00 00 00 00 
   1206      5052.118 DT     0113 Rx 8  EA 24 00 00 00 00 00 00 
   1207      5052.878 DT     0211 Rx 8  00 00 00 00 00 00 00 00 
   1208      5053.153 DT     0111 Rx 8  00 12 00 00 F4 FF 00 00 
   1209      5053.852 DT     0212 Rx 8  00 00 00 00 00 00 00 00 
   1210      5054.126 DT     0112 Rx 8  DD 1A 00 00 10 00 00 00 
   1211      5054.814 DT     0213 Rx 8  00 00 00 00 00 00 00 00 
   1212      5055.088 DT     0113 Rx 8  EA 24 00 00 00 00 00 00 
   1213      5055.834 DT     0211 Rx 8  00 00 00 00 00 00 00 00 
   1214      5056.110 DT     0111 Rx 8  0D 11 00 00 F3 FF 00 00 
   1215      5056.807 DT     0212 Rx 8  00 00 00 00 00 00 00 00 
   1216      5057.083 DT     0112 Rx 8  92 1B 00 00 10 00 00 00 
   1217      5057.906 DT     0213 Rx 8  00 00 00 00 00 00 00 00 
   1218      5058.188 DT     0113 Rx 8  DA 24 00 00 00 00 00 00 
   1219      5058.815 DT     0211 Rx 8  00 00 00 00 00 00 00 00 
   1220      5059.089 DT     0111 Rx 8  0D 10 00 00 F3 FF 00 00 
   1221      5059.871 DT     0212 Rx 8  00 00 00 00 00 00 00 00 
   1222      5060.157 DT     0112 Rx 8  00 1D 00 00 10 00 00 00 
   1223      5060.749 DT     0213 Rx 8  00 00 00 00 00 00 00 00 
   1224      5061.027 DT     0113 Rx 8  CB 24 00 00 00 00 00 00 
   1225      5061.862 DT     0211 Rx 8  00 00 00 00 00 00 00 00 
   1226      5062.139 DT     0111 Rx 8  02 0F 00 00 F3 FF 00 00 
   1227      5062.904 DT     0212 Rx 8  00 00 00 00 00 00 00 00 
   1228      5063.181 DT     0112 Rx 8  05 1E 00 00 0F 00 00 00 
   1229      5063.894 DT     0213 Rx 8  00 00 00 00 00 00 00 00 
   1230      5064.169 DT     0113 Rx 8  BC 24 00 00 00 00 00 00 
   1231      5064.857 DT     0211 Rx 8  00 00 00 00 00 00 00 00 
   1232      5065.130 DT     0111 Rx 8  F6 0D 00 00 F3 FF 00 00 
   1233      5065.948 DT     0212 Rx 8  00 00 00 00 00 00 00 00 
   1234      5066.223 DT     0112 Rx 8  09 1F 00 00 0F 00 00 00 
   1235      5066.811 DT     0213 Rx 8  00 00 00 00 00 00 00 00 
   1236      5067.086 DT     0113 Rx 8  AD 24 00 00 00 00 00 00 
   1237      5067.820 DT     0211 Rx 8  00 00 00 00 00 00 00 00 
   1238      5068.091 DT     0111 Rx 8  F5 0C 00 00 F2 FF 00 00 
   1239      5068.781 DT     0212 Rx 8  00 00 00 00 00 00 00 00 
   1240      5069.056 DT     0112 Rx 8  B1 1F 00 00 0E 00 00 00 
   1241      5069.829 DT     0213 Rx 8  00 00 00 00 00 00 00 00 
   1242      5070.100 DT     0113 Rx 8  9F 24 00 00 00 00 00 00 
   1243      5070.872 DT     0211 Rx 8  00 00 00 00 00 00 00 00 
   1244      5071.144 DT     0111 Rx 8  F3 0B 00 00 F2 FF 00 00 
   1245      5071.922 DT     0212 Rx 8  00 00 00 00 00 00 00 00 
   1246      5072.198 DT     0112 Rx 8  FF 20 00 00 0E 00 00 00 
   1247      5073.223 DT     0213 Rx 8  00 00 00 00 00 00 00 00 
   1248      5073.510 DT     0113 Rx 8  80 24 00 00 00 00 00 00 
   1249      5073.953 DT     0211 Rx 8  00 00 00 00 00 00 00 00 
   1250      5074.210 DT     0111 Rx 8  F1 0A 00 00 F2 FF 00 00 
   1251      5074.887 DT     0212 Rx 8  00 00 00 00 00 00 00 00 
   1252      5075.177 DT     0112 Rx 8  EB 21 00 00 0E 00 00 00 
   1253      5075.733 DT     0213 Rx 8  00 00 00 00 00 00 00 00 
   1254      5076.007 DT     0113 Rx 8  72 24 00 00 00 00 00 00 
   1255      5076.797 DT     0211 Rx 8  00 00 00 00 00 00 00 00 
   1256      5077.069 DT     0111 Rx 8  E9 09 00 00 F2 FF 00 00 
   1257      5077.860 DT     0212 Rx 8  00 00 00 00 00 00 00 00 
   1258      5078.134 DT     0112 Rx 8  CD 22 00 00 0D 00 00 00 
   1259      5078.823 DT     0213 Rx 8  00 00 00 00 00 00 00 00 
   1260      5079.097 DT     0113 Rx 8  53 24 00 00 FF FF 00 00 
   1261      5079.852 DT     0211 Rx 8  00 00 00 00 00 00 00 00 
   1262      5080.125 DT     0111 Rx 8  E6 08 00 00 F2 FF 00 00 
   1263      5080.783 DT     0212 Rx 8  00 00 00 00 00 00 00 00 
   1264      5081.057 DT     0112 Rx 8  55 23 00 00 0D 00 00 00 
   1265      5081.866 DT     0213 Rx 8  00 00 00 00 00 00 00 00 
   1266      5082.139 DT     0113 Rx 8  35 24 00 00 FF FF 00 00 
   1267      5082.806 DT     0211 Rx 8  00 00 00 00 00 00 00 00 
   1268      5083.078 DT     0111 Rx 8  D2 07 00 00 F2 FF 00 00 
   1269      5083.844 DT     0212 Rx 8  00 00 00 00 00 00 00 00 
   1270      5084.117 DT     0112 Rx 8  64 24 00 00 0C 00 00 00 
   1271      5084.802 DT     0213 Rx 8  00 00 00 00 00 00 00 00 
   1272      5085.078 DT     0113 Rx 8  18 24 00 00 FF FF 00 00 
   1273      5085.860 DT     0211 Rx 8  00 00 00 00 00 00 00 00 
   1274      5086.133 DT     0111 Rx 8  B8 06 00 00 F2 FF 00 00 
   1275      5086.822 DT     0212 Rx 8  00 00 00 00 00 00 00 00 
   1276      5087.095 DT     0112 Rx 8  E6 24 00 00 0C 00 00 00 
   1277      5087.826 DT     0213 Rx 8  00 00 00 00 00 00 00 00 
   1278      5088.099 DT     0113 Rx 8  EA 23 00 00 FF FF 00 00 
   1279      5088.779 DT     0211 Rx 8  00 00 00 00 00 00 00 00 
   1280      5089.051 DT     0111 Rx 8  98 05 00 00 F1 FF 00 00 
   1281      5090.468 DT     0212 Rx 8  00 00 00 00 00 00 00 00 
   1282      5090.731 DT     0213 Rx 8  00 00 00 00 00 00 00 00 
   1283      5090.741 DT     0112 Rx 8  DA 25 00 00 0B 00 00 00 
   1284      5091.006 DT     0113 Rx 8  BD 23 00 00 FF FF 00 00 
   1285      5091.852 DT     0211 Rx 8  00 00 00 00 00 00 00 00 
   1286      5092.124 DT     0111 Rx 8  82 04 00 00 F1 FF 00 00 
   1287      5092.651 DT     0212 Rx 8  00 00 00 00 00 00 00 00 
   1288      5092.925 DT     0112 Rx 8  4D 26 00 00 0B 00 00 00 
   1289      5093.829 DT     0213 Rx 8  00 00 00 00 00 00 00 00 
   1290      5094.103 DT     0113 Rx 8  90 23 00 00 FF FF 00 00 
   1291      5094.798 DT     0211 Rx 8  00 00 00 00 00 00 00 00 
   1292      5095.070 DT     0111 Rx 8  6D 03 00 00 F1 FF 00 00 
   1293      5095.728 DT     0212 Rx 8  00 00 00 00 00 00 00 00 
   1294      5096.001 DT     0112 Rx 8  ED 26 00 00 0A 00 00 00 
   1295      5097.163 DT     0213 Rx 8  00 00 00 00 00 00 00 00 
   1296      5097.435 DT     0113 Rx 8  45 23 00 00 FE FF 00 00 
   1297      5097.683 DT     0211 Rx 8  00 00 00 00 00 00 00 00 
   1298      5097.956 DT     0111 Rx 8  57 02 00 00 F1 FF 00 00 
   1299      5098.706 DT     0212 Rx 8  00 00 00 00 00 00 00 00 
   1300      5098.980 DT     0112 Rx 8  83 27 00 00 0A 00 00 00 
   1301      5099.768 DT     0213 Rx 8  00 00 00 00 00 00 00 00 
   1302      5100.043 DT     0113 Rx 8  28 23 00 00 FE FF 00 00 
   1303      5100.714 DT     0211 Rx 8  00 00 00 00 00 00 00 00 
   1304      5100.988 DT     0111 Rx 8  41 01 00 00 F1 FF 00 00 
   1305      5101.763 DT     0212 Rx 8  00 00 00 00 00 00 00 00 
   1306      5102.037 DT     0112 Rx 8  0F 28 00 00 09 00 00 00 
   1307      5102.699 DT     0213 Rx 8  00 00 00 00 00 00 00 00 
   1308      5102.972 DT     0113 Rx 8  EB 22 00 00 FE FF 00 00 
   1309      5103.750 DT     0211 Rx 8  00 00 00 00 00 00 00 00 
   1310      5104.023 DT     0111 Rx 8  25 00 00 00 F1 FF 00 00 
   1311      5104.682 DT     0212 Rx 8  00 00 00 00 00 00 00 00 
   1312      5104.955 DT     0112 Rx 8  92 28 00 00 08 00 00 00 
   1313      5105.693 DT     0213 Rx 8  00 00 00 00 00 00 00 00 
   1314      5105.966 DT     0113 Rx 8  BE 22 00 00 FE FF 00 00 
   1315      5125.311 DT     0211 Rx 8  00 00 00 00 00 00 00 00 
   1316      5125.583 DT     0111 Rx 8  61 F7 FF 00 F0 FF 00 00 
   1317      5126.730 DT     0212 Rx 8  00 00 00 00 00 00 00 00 
   1318      5127.036 DT     0112 Rx 8  C0 2A 00 00 04 00 00 00 
   1319      5127.870 DT     0213 Rx 8  00 00 00 00 00 00 00 00 
   1320      5128.145 DT     0113 Rx 8  FC 20 00 00 FD FF 00 00 
   1321      5128.654 DT     0211 Rx 8  00 00 00 00 00 00 00 00 
   1322      5128.966 DT     0111 Rx 8  13 F6 FF 00 EF FF 00 00 
   1323      5129.675 DT     0212 Rx 8  00 00 00 00 00 00 00 00 
   1324      5129.975 DT     0112 Rx 8  DA 2A 00 00 03 00 00 00 
   1325      5130.738 DT     0213 Rx 8  00 00 00 00 00 00 00 00 
   1326      5131.012 DT     0113 Rx 8  B2 20 00 00 FD FF 00 00 
   1327      5131.577 DT     0211 Rx 8  00 00 00 00 00 00 00 00 
   1328      5131.870 DT     0111 Rx 8  BB F4 FF 00 EF FF 00 00 
   1329      5132.601 DT     0212 Rx 8  00 00 00 00 00 00 00 00 
   1330      5132.897 DT     0112 Rx 8  EC 2A 00 00 03 00 00 00 
   1331      5133.587 DT     0213 Rx 8  00 00 00 00 00 00 00 00 
   1332      5133.882 DT     0113 Rx 8  75 20 00 00 FD FF 00 00 
   1333      5134.657 DT     0211 Rx 8  00 00 00 00 00 00 00 00 
   1334      5134.950 DT     0111 Rx 8  62 F3 FF 00 EF FF 00 00 
   1335      5135.593 DT     0212 Rx 8  00 00 00 00 00 00 00 00 
   1336      5135.867 DT     0112 Rx 8  F0 2A 00 00 02 00 00 00 
   1337      5136.606 DT     0213 Rx 8  00 00 00 00 00 00 00 00 
   1338      5136.881 DT     0113 Rx 8  3A 20 00 00 FD FF 00 00 
   1339      5157.698 DT     0211 Rx 8  00 00 00 00 00 00 00 00 
   1340      5157.969 DT     0111 Rx 8  D7 E8 FF 00 ED FF 00 00 
   1341      5159.508 DT     0212 Rx 8  00 00 00 00 00 00 00 00 
   1342      5159.828 DT     0213 Rx 8  00 00 00 00 00 00 00 00 
   1343      5159.784 DT     0112 Rx 8  67 2A 00 00 00 00 00 00 
   1344      5160.124 DT     0113 Rx 8  4A 1E 00 00 FD FF 00 00 
   1345      5160.632 DT     0211 Rx 8  00 00 00 00 00 00 00 00 
   1346      5160.927 DT     0111 Rx 8  6A E7 FF 00 ED FF 00 00 
   1347      5161.539 DT     0212 Rx 8  00 00 00 00 00 00 00 00 
   1348      5161.837 DT     0112 Rx 8  4D 2A 00 00 00 00 00 00 
   1349      5162.603 DT     0213 Rx 8  00 00 00 00 00 00 00 00 
   1350      5162.876 DT     0113 Rx 8  F0 1D 00 00 FD FF 00 00 
   1351      5163.516 DT     0211 Rx 8  00 00 00 00 00 00 00 00 
   1352      5163.788 DT     0111 Rx 8  03 E6 FF 00 ED FF 00 00 
   1353      5164.514 DT     0212 Rx 8  00 00 00 00 00 00 00 00 
   1354      5164.788 DT     0112 Rx 8  25 2A 00 00 FF FF 00 00 
   1355      5165.582 DT     0213 Rx 8  00 00 00 00 00 00 00 00 
   1356      5165.856 DT     0113 Rx 8  96 1D 00 00 FC FF 00 00 
   1357      5166.578 DT     0211 Rx 8  00 00 00 00 00 00 00 00 
   1358      5166.852 DT     0111 Rx 8  83 E4 FF 00 ED FF 00 00 
   1359      5167.478 DT     0212 Rx 8  00 00 00 00 00 00 00 00 
   1360      5167.752 DT     0112 Rx 8  F4 29 00 00 FF FF 00 00 
   1361      5168.554 DT     0213 Rx 8  00 00 00 00 00 00 00 00 
   1362      5168.829 DT     0113 Rx 8  3C 1D 00 00 FC FF 00 00 
   1363      5169.595 DT     0211 Rx 8  00 00 00 00 00 00 00 00 
   1364      5169.867 DT     0111 Rx 8  FF E2 FF 00 EC FF 00 00 
   1365      5170.552 DT     0212 Rx 8  00 00 00 00 00 00 00 00 
   1366      5170.832 DT     0112 Rx 8  BE 29 00 00 FF FF 00 00 
   1367      5171.566 DT     0213 Rx 8  00 00 00 00 00 00 00 00 
   1368      5171.839 DT     0113 Rx 8  D3 1C 00 00 FC FF 00 00 
   1369      5172.559 DT     0211 Rx 8  00 00 00 00 00 00 00 00 
   1370      5172.829 DT     0111 Rx 8  88 E1 FF 00 EC FF 00 00 
   1371      5173.460 DT     0212 Rx 8  00 00 00 00 00 00 00 00 
   1372      5173.732 DT     0112 Rx 8  84 29 00 00 FE FF 00 00 
   1373      5174.622 DT     0213 Rx 8  00 00 00 00 00 00 00 00 
   1374      5174.900 DT     0113 Rx 8  5B 1C 00 00 FB FF 00 00 
   1375      5175.605 DT     0211 Rx 8  00 00 00 00 00 00 00 00 
   1376      5175.884 DT     0111 Rx 8  13 E0 FF 00 EC FF 00 00 
   1377      5176.711 DT     0212 Rx 8  00 00 00 00 00 00 00 00 
   1378      5176.985 DT     0112 Rx 8  41 29 00 00 FE FF 00 00 
   1379      5178.394 DT     0201 Rx 8  1F 18 00 00 00 00 64 64 
   1380      5178.652 DT     0101 Rx 8  18 78 80 00 00 00 C1 FF 
   1381      5179.404 DT     0201 Rx 8  1F 18 00 00 00 00 64 64 
   1382      5179.666 DT     0101 Rx 8  10 78 00 00 00 00 C1 FF 
   1383      5180.398 DT     0201 Rx 8  1F 18 00 00 00 00 64 64 
   1384      5180.659 DT     0101 Rx 8  10 78 00 00 00 00 C1 FF 
   1385      5181.391 DT     0201 Rx 8  1F 18 00 00 00 00 64 64 
   1386      5181.652 DT     0101 Rx 8  10 78 00 00 00 00 C1 FF 
   1387      5182.472 DT     0201 Rx 8  1F 18 00 00 00 00 64 64 
   1388      5182.734 DT     0101 Rx 8  10 78 00 00 00 00 C1 FF 
   1389      5184.988 DT     0201 Rx 8  42 00 00 00 00 00 64 64 
   1390      5185.249 DT     0101 Rx 8  10 58 00 00 00 00 C1 FF 
   1391      5186.303 DT     0201 Rx 8  44 00 00 00 00 00 64 64 
   1392      5186.492 DT     0201 Rx 8  44 00 00 00 00 00 64 64 
   1393      5186.564 DT     0101 Rx 8  40 48 00 00 00 00 C1 FF 
   1394      5186.812 DT     0101 Rx 8  42 48 00 00 00 00 C1 FF 
   1395      5187.537 DT     0201 Rx 8  44 00 00 00 00 00 64 64 
   1396      5187.793 DT     0101 Rx 8  42 48 00 00 00 00 C1 FF 
   1397      5189.603 DT     0201 Rx 8  44 00 00 00 00 00 64 64 
   1398      5189.864 DT     0101 Rx 8  44 48 00 00 00 00 C1 FF 
   1399      5191.390 DT     0201 Rx 8  44 00 00 00 00 00 64 64 
   1400      5191.646 DT     0101 Rx 8  44 48 00 00 00 00 C1 FF 
   1401      5192.360 DT     0201 Rx 8  44 00 00 00 00 00 64 64 
   1402      5192.616 DT     0101 Rx 8  44 48 00 00 00 00 C1 FF 
   1403      5194.002 DT     0201 Rx 8  44 00 00 00 00 00 64 64 
   1404      5194.260 DT     0101 Rx 8  44 48 00 00 00 00 C1 FF 
   1405      5194.555 DT     0201 Rx 8  44 00 00 00 00 00 64 64 
   1406      5194.812 DT     0101 Rx 8  44 48 00 00 00 00 C1 FF 
   1407      5195.335 DT     0201 Rx 8  44 00 00 00 00 00 64 64 
   1408      5195.591 DT     0101 Rx 8  44 48 00 00 00 00 C1 FF 
   1409      5196.330 DT     0201 Rx 8  44 00 00 00 00 00 64 64 
   1410      5196.586 DT     0101 Rx 8  44 48 00 00 00 00 C1 FF 
   1411      5197.356 DT     0201 Rx 8  44 00 00 00 00 00 64 64 
   1412      5197.613 DT     0101 Rx 8  44 48 00 00 00 00 C1 FF 
   1413      5198.961 DT     0201 Rx 8  44 00 00 00 00 00 64 64 
   1414      5199.218 DT     0101 Rx 8  44 48 00 00 00 00 C1 FF 
   1415      5199.694 DT     0201 Rx 8  44 00 00 00 00 00 64 64 
   1416      5199.958 DT     0101 Rx 8  44 48 00 00 00 00 C1 FF 
   1417      5200.325 DT     0201 Rx 8  44 00 00 00 00 00 64 64 
   1418      5200.581 DT     0101 Rx 8  44 48 00 00 00 00 C1 FF 
   1419      5201.318 DT     0201 Rx 8  44 00 00 00 00 00 64 64 
   1420      5201.575 DT     0101 Rx 8  44 48 00 00 00 00 C1 FF 
   1421      5202.318 DT     0201 Rx 8  44 00 00 00 00 00 64 64 
   1422      5202.574 DT     0101 Rx 8  44 48 00 00 00 00 C1 FF 
   1423      5203.973 DT     0201 Rx 8  44 00 00 00 00 00 64 64 
   1424      5204.229 DT     0101 Rx 8  44 48 00 00 00 00 C1 FF 
   1425      5204.526 DT     0201 Rx 8  44 00 00 00 00 00 64 64 
   1426      5204.783 DT     0101 Rx 8  44 48 00 00 00 00 C1 FF 
   1427      5205.305 DT     0201 Rx 8  44 00 00 00 00 00 64 64 
   1428      5205.560 DT     0101 Rx 8  44 48 00 00 00 00 C1 FF 
   1429      5206.659 DT     0201 Rx 8  44 00 00 00 00 00 64 64 
   1430      5206.915 DT     0101 Rx 8  44 48 00 00 00 00 C1 FF 
   1431      5207.350 DT     0201 Rx 8  44 00 00 00 00 00 64 64 
   1432      5207.606 DT     0101 Rx 8  44 48 00 00 00 00 C1 FF 
   1433      5208.783 DT     0201 Rx 8  44 00 00 00 00 00 64 64 
   1434      5209.039 DT     0101 Rx 8  44 48 00 00 00 00 C1 FF 
   1435      5209.930 DT     0201 Rx 8  44 00 00 00 00 00 64 64 
   1436      5210.186 DT     0101 Rx 8  44 48 00 00 00 00 C1 FF 
   1437      5210.464 DT     0201 Rx 8  44 00 00 00 00 00 64 64 
   1438      5210.720 DT     0101 Rx 8  44 48 00 00 00 00 C1 FF 
   1439      5211.291 DT     0201 Rx 8  44 00 00 00 00 00 64 64 
   1440      5211.546 DT     0101 Rx 8  44 48 00 00 00 00 C1 FF 
   1441      5212.286 DT     0201 Rx 8  44 00 00 00 00 00 64 64 
   1442      5212.542 DT     0101 Rx 8  44 48 00 00 00 00 C1 FF 
   1443      5213.647 DT     0201 Rx 8  44 00 00 00 00 00 64 64 
   1444      5213.904 DT     0101 Rx 8  44 48 00 00 00 00 C1 FF 
   1445      5214.291 DT     0201 Rx 8  44 00 00 00 00 00 64 64 
   1446      5214.553 DT     0101 Rx 8  44 48 00 00 00 00 C1 FF 
   1447      5215.283 DT     0201 Rx 8  44 00 00 00 00 00 64 64 
   1448      5215.538 DT     0101 Rx 8  44 48 00 00 00 00 C1 FF 
   1449      5216.282 DT     0201 Rx 8  44 00 00 00 00 00 64 64 
   1450      5216.538 DT     0101 Rx 8  44 48 00 00 00 00 C1 FF 
   1451      5217.277 DT     0201 Rx 8  44 00 00 00 00 00 64 64 
   1452      5217.532 DT     0101 Rx 8  44 48 00 00 00 00 C1 FF 
   1453      5218.584 DT     0201 Rx 8  44 00 00 00 00 00 64 64 
   1454      5218.841 DT     0101 Rx 8  44 48 00 00 00 00 C1 FF 
   1455      5219.278 DT     0201 Rx 8  44 00 00 00 00 00 64 64 
   1456      5219.534 DT     0101 Rx 8  44 48 00 00 00 00 C1 FF 
   1457      5220.286 DT     0201 Rx 8  44 00 00 00 00 00 64 64 
   1458      5220.542 DT     0101 Rx 8  44 48 00 00 00 00 C1 FF 
   1459      5221.278 DT     0201 Rx 8  44 00 00 00 00 00 64 64 
   1460      5221.534 DT     0101 Rx 8  44 48 00 00 00 00 C1 FF 
   1461      5222.282 DT     0201 Rx 8  44 00 00 00 00 00 64 64 
   1462      5222.539 DT     0101 Rx 8  44 48 00 00 00 00 C1 FF 
   1463      5223.877 DT     0201 Rx 8  44 00 00 00 00 00 64 64 
   1464      5224.133 DT     0101 Rx 8  44 48 00 00 00 00 C1 FF 
   1465      5224.520 DT     0201 Rx 8  44 00 00 00 00 00 64 64 
   1466      5224.775 DT     0101 Rx 8  44 48 00 00 00 00 C1 FF 
   1467      5225.276 DT     0201 Rx 8  44 00 00 00 00 00 64 64 
   1468      5225.532 DT     0101 Rx 8  44 48 00 00 00 00 C1 FF 
   1469      5226.258 DT     0201 Rx 8  44 00 00 00 00 00 64 64 
   1470      5226.514 DT     0101 Rx 8  44 48 00 00 00 00 C1 FF 
   1471      5227.251 DT     0201 Rx 8  44 00 00 00 00 00 64 64 
   1472      5227.508 DT     0101 Rx 8  44 48 00 00 00 00 C1 FF 
   1473      5228.670 DT     0201 Rx 8  44 00 00 00 00 00 64 64 
   1474      5228.927 DT     0101 Rx 8  44 48 00 00 00 00 C1 FF 
   1475      5229.249 DT     0201 Rx 8  44 00 00 00 00 00 64 64 
   1476      5229.506 DT     0101 Rx 8  44 48 00 00 00 00 C1 FF 
   1477      5230.266 DT     0201 Rx 8  44 00 00 00 00 00 64 64 
   1478      5230.523 DT     0101 Rx 8  44 48 00 00 00 00 C1 FF 
   1479      5248.581 DT     0201 Rx 8  44 00 00 00 00 00 64 64 
   1480      5248.837 DT     0101 Rx 8  44 48 00 00 00 00 C1 FF 
   1481      5251.927 DT     0201 Rx 8  44 00 00 00 00 00 64 64 
   1482      5252.186 DT     0101 Rx 8  44 48 00 00 00 00 C1 FF 
   1483      5254.072 DT     0201 Rx 8  44 00 00 00 00 00 64 64 
   1484      5254.371 DT     0101 Rx 8  44 48 00 00 00 00 C1 FF 
   1485      5258.360 DT     0201 Rx 8  44 00 00 00 00 00 64 64 
   1486      5258.647 DT     0101 Rx 8  44 48 00 00 00 00 C1 FF 
   1487      5261.312 DT     0201 Rx 8  44 00 00 00 00 00 64 64 
   1488      5261.589 DT     0101 Rx 8  44 48 00 00 00 00 C1 FF 
   1489      5261.787 DT     0201 Rx 8  44 00 00 00 00 00 64 64 
   1490      5262.081 DT     0101 Rx 8  44 48 00 00 00 00 C1 FF 
   1491      5262.255 DT     0201 Rx 8  44 00 00 00 00 00 64 64 
   1492      5262.540 DT     0101 Rx 8  44 48 00 00 00 00 C1 FF 
   1493      5264.360 DT     0201 Rx 8  44 00 00 00 00 00 64 64 
   1494      5264.616 DT     0101 Rx 8  44 48 00 00 00 00 C1 FF 
   1495      5265.223 DT     0201 Rx 8  44 00 00 00 00 00 64 64 
   1496      5265.509 DT     0101 Rx 8  44 48 00 00 00 00 C1 FF 
   1497      5266.272 DT     0201 Rx 8  44 00 00 00 00 00 64 64 
   1498      5266.560 DT     0101 Rx 8  44 48 00 00 00 00 C1 FF 
   1499      5267.260 DT     0201 Rx 8  44 00 00 00 00 00 64 64 
   1500      5267.550 DT     0101 Rx 8  44 48 00 00 00 00 C1 FF 
   1501      5269.085 DT     0201 Rx 8  44 00 00 00 00 00 64 64 
   1502      5269.345 DT     0101 Rx 8  44 48 00 00 00 00 C1 FF 
   1503      5269.692 DT     0201 Rx 8  44 00 00 00 00 00 64 64 
   1504      5269.977 DT     0101 Rx 8  44 48 00 00 00 00 C1 FF 
   1505      5270.190 DT     0201 Rx 8  44 00 00 00 00 00 64 64 
   1506      5270.484 DT     0101 Rx 8  44 48 00 00 00 00 C1 FF 
   1507      5271.238 DT     0201 Rx 8  44 00 00 00 00 00 64 64 
   1508      5271.526 DT     0101 Rx 8  44 48 00 00 00 00 C1 FF 
