;$FILEVERSION=2.0
;$STARTTIME=44609.4666201852
;$COLUMNS=N,O,T,I,d,l,D
;
;   Start time: 2/17/2022 11:11:55.984.0
;   Generated by PCAN-View v5.0.1.822
;   Message   Time    Type ID     Rx/Tx
;   Number    Offset  |    [hex]  |  Data Length
;   |         [ms]    |    |      |  |  Data [hex] ...
;   |         |       |    |      |  |  |
;---+-- ------+------ +- --+----- +- +- +- +- -- -- -- -- -- -- --
      1         1.603 DT     0211 Rx 8  00 00 00 00 14 00 DC 05 
      2         1.938 DT     0111 Rx 8  73 00 00 00 00 00 D1 FF 
      3         5.293 DT     0211 Rx 8  00 00 00 00 14 00 DC 05 
      4         5.570 DT     0111 Rx 8  79 00 00 00 00 00 D1 FF 
      5         9.306 DT     0212 Rx 8  00 00 00 00 14 01 DC 05 
      6         9.607 DT     0112 Rx 8  ED 01 00 01 00 00 25 FF 
      7        13.163 DT     0212 Rx 8  00 00 00 00 14 01 DC 05 
      8        13.461 DT     0112 Rx 8  ED 01 00 01 00 00 34 FF 
      9        17.322 DT     0213 Rx 8  00 00 00 00 14 02 DC 05 
     10        17.637 DT     0113 Rx 8  B6 FF FF 02 00 00 09 00 
     11        21.159 DT     0213 Rx 8  00 00 00 00 14 02 DC 05 
     12        21.463 DT     0113 Rx 8  B6 FF FF 02 00 00 0C 00 
     13        25.166 DT     0251 Rx 0  
     14        25.375 DT     0151 Rx 6  00 00 00 00 00 00 
     15        29.425 DT     0251 Rx 0  
     16        29.612 DT     0151 Rx 6  00 00 00 00 00 00 
     17        33.739 DT     0252 Rx 0  
     18        33.944 DT     0152 Rx 6  00 00 00 00 00 00 
     19        37.210 DT     0252 Rx 0  
     20        37.416 DT     0152 Rx 6  00 00 00 00 00 00 
     21        41.433 DT     0211 Rx 8  00 00 00 00 14 03 DC 05 
     22        41.737 DT     0111 Rx 8  79 00 00 03 00 00 D1 FF 
     23        45.144 DT     0211 Rx 8  00 00 00 00 14 03 DC 05 
     24        45.450 DT     0111 Rx 8  79 00 00 03 00 00 D1 FF 
     25        49.356 DT     0212 Rx 8  00 00 00 00 14 04 DC 05 
     26        49.661 DT     0112 Rx 8  ED 01 00 04 00 00 16 FF 
     27        53.204 DT     0212 Rx 8  00 00 00 00 14 04 DC 05 
     28        53.514 DT     0112 Rx 8  ED 01 00 04 00 00 34 FF 
     29        57.187 DT     0213 Rx 8  00 00 00 00 14 05 DC 05 
     30        57.496 DT     0113 Rx 8  B6 FF FF 05 00 00 0C 00 
     31        61.069 DT     0213 Rx 8  00 00 00 00 14 05 DC 05 
     32        61.398 DT     0113 Rx 8  B6 FF FF 05 00 00 09 00 
     33        65.312 DT     0251 Rx 0  
     34        65.477 DT     0151 Rx 6  00 00 00 00 00 00 
     35        69.129 DT     0251 Rx 0  
     36        69.323 DT     0151 Rx 6  00 00 00 00 00 00 
     37        73.278 DT     0252 Rx 0  
     38        73.492 DT     0152 Rx 6  00 00 00 00 00 00 
     39        77.077 DT     0252 Rx 0  
     40        77.264 DT     0152 Rx 6  00 00 00 00 00 00 
     41        81.110 DT     0211 Rx 8  00 00 00 00 14 06 DC 05 
     42        81.412 DT     0111 Rx 8  79 00 00 06 00 00 D1 FF 
     43        85.154 DT     0211 Rx 8  00 00 00 00 14 06 DC 05 
     44        85.466 DT     0111 Rx 8  79 00 00 06 00 00 E0 FF 
     45        89.103 DT     0212 Rx 8  00 00 00 00 14 07 DC 05 
     46        89.411 DT     0112 Rx 8  ED 01 00 07 00 00 53 FF 
     47        93.036 DT     0212 Rx 8  00 00 00 00 14 07 DC 05 
     48        93.339 DT     0112 Rx 8  ED 01 00 07 00 00 25 FF 
     49        97.069 DT     0213 Rx 8  00 00 00 00 14 08 DC 05 
     50        97.372 DT     0113 Rx 8  B6 FF FF 08 00 00 0C 00 
     51       101.086 DT     0213 Rx 8  00 00 00 00 14 08 DC 05 
     52       101.392 DT     0113 Rx 8  B6 FF FF 08 00 00 0E 00 
     53       105.452 DT     0251 Rx 0  
     54       105.666 DT     0151 Rx 6  00 00 00 00 00 00 
     55       123.896 DT     0251 Rx 0  
     56       124.071 DT     0151 Rx 6  00 00 00 00 00 00 
     57       125.003 DT     0252 Rx 0  
     58       125.171 DT     0152 Rx 6  00 00 00 00 00 00 
     59       128.967 DT     0211 Rx 8  00 00 00 00 14 09 DC 05 
     60       129.266 DT     0111 Rx 8  79 00 00 09 00 00 D1 FF 
     61       133.093 DT     0211 Rx 8  00 00 00 00 14 09 DC 05 
     62       133.371 DT     0111 Rx 8  79 00 00 09 00 00 D1 FF 
     63       136.936 DT     0212 Rx 8  00 00 00 00 14 0A DC 05 
     64       137.241 DT     0112 Rx 8  ED 01 00 0A 00 00 34 FF 
     65       140.895 DT     0212 Rx 8  00 00 00 00 14 0A DC 05 
     66       141.200 DT     0112 Rx 8  ED 01 00 0A 00 00 42 FF 
     67       144.955 DT     0213 Rx 8  00 00 00 00 14 0B DC 05 
     68       145.259 DT     0113 Rx 8  B6 FF FF 0B 00 00 13 00 
     69       148.789 DT     0213 Rx 8  00 00 00 00 14 0B DC 05 
     70       149.075 DT     0113 Rx 8  C5 FF FF 0B 00 00 16 00 
     71       153.176 DT     0251 Rx 0  
     72       153.360 DT     0151 Rx 6  00 00 00 00 00 00 
     73       157.065 DT     0251 Rx 0  
     74       157.261 DT     0151 Rx 6  00 00 00 00 00 00 
     75       161.267 DT     0252 Rx 0  
     76       161.471 DT     0152 Rx 6  00 00 00 00 00 00 
     77       165.054 DT     0252 Rx 0  
     78       165.223 DT     0152 Rx 6  00 00 00 00 00 00 
     79       169.592 DT     0211 Rx 8  00 00 00 00 14 0C DC 05 
     80       169.898 DT     0111 Rx 8  79 00 00 0C 00 00 EF FF 
     81       173.022 DT     0211 Rx 8  00 00 00 00 14 0C DC 05 
     82       173.351 DT     0111 Rx 8  79 00 00 0C 00 00 C4 FF 
     83       177.094 DT     0212 Rx 8  00 00 00 00 14 0D DC 05 
     84       177.398 DT     0112 Rx 8  ED 01 00 0D 00 00 34 FF 
     85       180.983 DT     0212 Rx 8  00 00 00 00 14 0D DC 05 
     86       181.289 DT     0112 Rx 8  ED 01 00 0D 00 00 44 FF 
     87       184.943 DT     0213 Rx 8  00 00 00 00 14 0E DC 05 
     88       185.247 DT     0113 Rx 8  D4 FF FF 0E 00 00 09 00 
     89       188.721 DT     0213 Rx 8  00 00 00 00 14 0E DC 05 
     90       188.996 DT     0113 Rx 8  D4 FF FF 0E 00 00 0C 00 
     91       192.787 DT     0251 Rx 0  
     92       192.990 DT     0151 Rx 6  00 00 00 00 00 00 
     93       196.625 DT     0251 Rx 0  
     94       196.812 DT     0151 Rx 6  00 00 00 00 00 00 
     95       200.924 DT     0252 Rx 0  
     96       201.092 DT     0152 Rx 6  00 00 00 00 00 00 
     97       204.732 DT     0252 Rx 0  
     98       204.943 DT     0152 Rx 6  00 00 00 00 00 00 
     99       208.935 DT     0211 Rx 8  00 00 00 00 14 0F DC 05 
    100       209.248 DT     0111 Rx 8  79 00 00 0F 00 00 D1 FF 
    101       212.777 DT     0211 Rx 8  00 00 00 00 14 0F DC 05 
    102       213.090 DT     0111 Rx 8  79 00 00 0F 00 00 D1 FF 
    103       217.535 DT     0212 Rx 8  00 00 00 00 14 00 DC 05 
    104       217.863 DT     0112 Rx 8  E3 01 00 00 00 00 25 FF 
    105       220.971 DT     0212 Rx 8  00 00 00 00 14 00 DC 05 
    106       221.286 DT     0112 Rx 8  E3 01 00 00 00 00 34 FF 
    107       225.133 DT     0213 Rx 8  00 00 00 00 14 01 DC 05 
    108       225.446 DT     0113 Rx 8  D4 FF FF 01 00 00 0B 00 
    109       228.948 DT     0213 Rx 8  00 00 00 00 14 01 DC 05 
    110       229.261 DT     0113 Rx 8  D4 FF FF 01 00 00 03 00 
    111       233.006 DT     0251 Rx 0  
    112       233.180 DT     0151 Rx 6  00 00 00 00 00 00 
    113       236.895 DT     0251 Rx 0  
    114       237.092 DT     0151 Rx 6  00 00 00 00 00 00 
    115       241.344 DT     0252 Rx 0  
    116       241.549 DT     0152 Rx 6  00 00 00 00 00 00 
    117       244.965 DT     0252 Rx 0  
    118       245.162 DT     0152 Rx 6  00 00 00 00 00 00 
    119       250.234 DT     0211 Rx 8  00 00 00 00 14 02 DC 05 
    120       250.512 DT     0111 Rx 8  79 00 00 02 00 00 D1 FF 
    121       253.215 DT     0211 Rx 8  00 00 00 00 14 02 DC 05 
    122       253.488 DT     0111 Rx 8  79 00 00 02 00 00 D1 FF 
    123       257.799 DT     0212 Rx 8  00 00 00 00 14 03 DC 05 
    124       258.114 DT     0112 Rx 8  DE 01 00 03 00 00 34 FF 
    125       261.568 DT     0212 Rx 8  00 00 00 00 14 03 DC 05 
    126       261.872 DT     0112 Rx 8  DE 01 00 03 00 00 25 FF 
    127       283.681 DT     0213 Rx 8  00 00 00 00 14 04 DC 05 
    128       283.989 DT     0113 Rx 8  D4 FF FF 04 00 00 03 00 
    129       285.483 DT     0213 Rx 8  00 00 00 00 14 04 DC 05 
    130       285.801 DT     0113 Rx 8  D4 FF FF 04 00 00 0C 00 
    131       289.539 DT     0251 Rx 0  
    132       289.704 DT     0151 Rx 6  00 00 00 00 00 00 
    133       296.031 DT     0251 Rx 0  
    134       296.197 DT     0151 Rx 6  00 00 00 00 00 00 
    135       311.924 DT     0252 Rx 0  
    136       312.094 DT     0152 Rx 6  00 00 00 00 00 00 
    137       314.328 DT     0211 Rx 8  00 00 00 00 14 05 DC 05 
    138       314.602 DT     0111 Rx 8  79 00 00 05 00 00 C4 FF 
    139       317.445 DT     0211 Rx 8  00 00 00 00 14 05 DC 05 
    140       317.722 DT     0111 Rx 8  79 00 00 05 00 00 D1 FF 
    141       321.585 DT     0212 Rx 8  00 00 00 00 14 06 DC 05 
    142       321.875 DT     0112 Rx 8  D9 01 00 06 00 00 25 FF 
    143       325.650 DT     0212 Rx 8  00 00 00 00 14 06 DC 05 
    144       325.960 DT     0112 Rx 8  D9 01 00 06 00 00 25 FF 
    145       342.669 DT     0213 Rx 8  00 00 00 00 14 07 DC 05 
    146       342.978 DT     0113 Rx 8  C5 FF FF 07 00 00 03 00 
    147       345.612 DT     0251 Rx 0  
    148       345.809 DT     0151 Rx 6  00 00 00 00 00 00 
    149       349.478 DT     0251 Rx 0  
    150       349.680 DT     0151 Rx 6  00 00 00 00 00 00 
    151       353.752 DT     0252 Rx 0  
    152       353.949 DT     0152 Rx 6  00 00 00 00 00 00 
    153       357.534 DT     0252 Rx 0  
    154       357.762 DT     0152 Rx 6  00 00 00 00 00 00 
    155       361.395 DT     0211 Rx 8  00 00 00 00 14 08 DC 05 
    156       361.696 DT     0111 Rx 8  68 00 00 08 00 00 D1 FF 
    157       365.579 DT     0211 Rx 8  00 00 00 00 14 08 DC 05 
    158       365.853 DT     0111 Rx 8  57 00 00 08 00 00 C4 FF 
    159       369.570 DT     0212 Rx 8  00 00 00 00 14 09 DC 05 
    160       369.872 DT     0112 Rx 8  D9 01 00 09 00 00 34 FF 
    161       373.379 DT     0212 Rx 8  00 00 00 00 14 09 DC 05 
    162       373.675 DT     0112 Rx 8  D9 01 00 09 00 00 44 FF 
    163       377.342 DT     0213 Rx 8  00 00 00 00 14 0A DC 05 
    164       377.647 DT     0113 Rx 8  C5 FF FF 0A 00 00 09 00 
    165       381.143 DT     0213 Rx 8  00 00 00 00 14 0A DC 05 
    166       381.442 DT     0113 Rx 8  C5 FF FF 0A 00 00 0C 00 
    167       385.352 DT     0251 Rx 0  
    168       385.549 DT     0151 Rx 6  00 00 00 00 00 00 
    169       389.126 DT     0251 Rx 0  
    170       389.291 DT     0151 Rx 6  00 00 00 00 00 00 
    171       393.386 DT     0252 Rx 0  
    172       393.586 DT     0152 Rx 6  00 00 00 00 00 00 
    173       397.102 DT     0252 Rx 0  
    174       397.297 DT     0152 Rx 6  00 00 00 00 00 00 
    175       401.373 DT     0211 Rx 8  00 00 00 00 14 0B DC 05 
    176       401.676 DT     0111 Rx 8  57 00 00 0B 00 00 E0 FF 
    177       405.208 DT     0211 Rx 8  00 00 00 00 14 0B DC 05 
    178       405.520 DT     0111 Rx 8  57 00 00 0B 00 00 E0 FF 
    179       409.182 DT     0212 Rx 8  00 00 00 00 14 0C DC 05 
    180       409.498 DT     0112 Rx 8  C9 01 00 0C 00 00 44 FF 
    181       413.148 DT     0212 Rx 8  00 00 00 00 14 0C DC 05 
    182       413.424 DT     0112 Rx 8  C9 01 00 0C 00 00 34 FF 
    183       417.318 DT     0213 Rx 8  00 00 00 00 14 0D DC 05 
    184       417.632 DT     0113 Rx 8  B6 FF FF 0D 00 00 0E 00 
    185       421.199 DT     0213 Rx 8  00 00 00 00 14 0D DC 05 
    186       421.509 DT     0113 Rx 8  B6 FF FF 0D 00 00 0C 00 
    187       425.342 DT     0251 Rx 0  
    188       425.550 DT     0151 Rx 6  00 00 00 00 00 00 
    189       429.187 DT     0251 Rx 0  
    190       429.392 DT     0151 Rx 6  00 00 00 00 00 00 
    191       433.852 DT     0252 Rx 0  
    192       434.062 DT     0152 Rx 6  00 00 00 00 00 00 
    193       437.021 DT     0252 Rx 0  
    194       437.189 DT     0152 Rx 6  00 00 00 00 00 00 
    195       441.145 DT     0211 Rx 8  00 00 00 00 14 0E DC 05 
    196       441.470 DT     0111 Rx 8  52 00 00 0E 00 00 E0 FF 
    197       445.044 DT     0211 Rx 8  00 00 00 00 14 0E DC 05 
    198       445.338 DT     0111 Rx 8  52 00 00 0E 00 00 E0 FF 
    199       449.281 DT     0212 Rx 8  00 00 00 00 14 0F DC 05 
    200       449.597 DT     0112 Rx 8  C4 01 00 0F 00 00 44 FF 
    201       453.430 DT     0212 Rx 8  00 00 00 00 14 0F DC 05 
    202       453.734 DT     0112 Rx 8  C4 01 00 0F 00 00 44 FF 
    203       457.072 DT     0213 Rx 8  00 00 00 00 14 00 DC 05 
    204       457.384 DT     0113 Rx 8  98 FF FF 00 00 00 07 00 
    205       461.224 DT     0213 Rx 8  00 00 00 00 14 00 DC 05 
    206       461.547 DT     0113 Rx 8  98 FF FF 00 00 00 1D 00 
    207       465.382 DT     0251 Rx 0  
    208       465.584 DT     0151 Rx 6  00 00 00 00 00 00 
    209       469.103 DT     0251 Rx 0  
    210       469.270 DT     0151 Rx 6  00 00 00 00 00 00 
    211       473.189 DT     0252 Rx 0  
    212       473.388 DT     0152 Rx 6  00 00 00 00 00 00 
    213       477.008 DT     0252 Rx 0  
    214       477.214 DT     0152 Rx 6  00 00 00 00 00 00 
    215       481.018 DT     0211 Rx 8  00 00 00 00 14 01 DC 05 
    216       481.343 DT     0111 Rx 8  46 00 00 01 00 00 D1 FF 
    217       485.069 DT     0211 Rx 8  00 00 00 00 14 01 DC 05 
    218       485.381 DT     0111 Rx 8  46 00 00 01 00 00 E0 FF 
    219       488.999 DT     0212 Rx 8  00 00 00 00 14 02 DC 05 
    220       489.296 DT     0112 Rx 8  C4 01 00 02 00 00 44 FF 
    221       492.880 DT     0212 Rx 8  00 00 00 00 14 02 DC 05 
    222       493.176 DT     0112 Rx 8  C4 01 00 02 00 00 34 FF 
    223       496.904 DT     0213 Rx 8  00 00 00 00 14 03 DC 05 
    224       497.209 DT     0113 Rx 8  89 FF FF 03 00 00 0C 00 
    225       500.957 DT     0213 Rx 8  00 00 00 00 14 03 DC 05 
    226       501.231 DT     0113 Rx 8  89 FF FF 03 00 00 15 00 
    227       504.962 DT     0251 Rx 0  
    228       505.160 DT     0151 Rx 6  00 00 00 00 00 00 
    229       508.875 DT     0251 Rx 0  
    230       509.040 DT     0151 Rx 6  00 00 00 00 00 00 
    231       513.042 DT     0252 Rx 0  
    232       513.246 DT     0152 Rx 6  00 00 00 00 00 00 
    233       517.127 DT     0252 Rx 0  
    234       517.303 DT     0152 Rx 6  00 00 00 00 00 00 
    235       520.916 DT     0211 Rx 8  00 00 00 00 14 04 DC 05 
    236       521.220 DT     0111 Rx 8  46 00 00 04 00 00 E0 FF 
    237       525.079 DT     0211 Rx 8  00 00 00 00 14 04 DC 05 
    238       525.389 DT     0111 Rx 8  41 00 00 04 00 00 EF FF 
    239       529.342 DT     0212 Rx 8  00 00 00 00 14 05 DC 05 
    240       529.647 DT     0112 Rx 8  C4 01 00 05 00 00 34 FF 
    241       543.048 DT     0212 Rx 8  00 00 00 00 14 05 DC 05 
    242       543.333 DT     0112 Rx 8  AF 01 00 05 00 00 53 FF 
    243       545.040 DT     0213 Rx 8  00 00 00 00 14 06 DC 05 
    244       545.351 DT     0113 Rx 8  89 FF FF 06 00 00 15 00 
    245       548.857 DT     0213 Rx 8  00 00 00 00 14 06 DC 05 
    246       549.139 DT     0113 Rx 8  89 FF FF 06 00 00 13 00 
    247       552.996 DT     0251 Rx 0  
    248       553.198 DT     0151 Rx 6  00 00 00 00 00 00 
    249       556.915 DT     0251 Rx 0  
    250       557.081 DT     0151 Rx 6  00 00 00 00 00 00 
    251       561.082 DT     0252 Rx 0  
    252       561.279 DT     0152 Rx 6  00 00 00 00 00 00 
    253       564.948 DT     0252 Rx 0  
    254       565.113 DT     0152 Rx 6  00 00 00 00 00 00 
    255       568.845 DT     0211 Rx 8  00 00 00 00 14 07 DC 05 
    256       569.140 DT     0111 Rx 8  41 00 00 07 00 00 E0 FF 
    257       572.805 DT     0211 Rx 8  00 00 00 00 14 07 DC 05 
    258       573.106 DT     0111 Rx 8  41 00 00 07 00 00 E0 FF 
    259       576.749 DT     0212 Rx 8  00 00 00 00 14 08 DC 05 
    260       577.058 DT     0112 Rx 8  A4 01 00 08 00 00 44 FF 
    261       580.701 DT     0212 Rx 8  00 00 00 00 14 08 DC 05 
    262       581.008 DT     0112 Rx 8  A4 01 00 08 00 00 61 FF 
    263       584.897 DT     0213 Rx 8  00 00 00 00 14 09 DC 05 
    264       585.193 DT     0113 Rx 8  89 FF FF 09 00 00 09 00 
    265       588.696 DT     0213 Rx 8  00 00 00 00 14 09 DC 05 
    266       589.023 DT     0113 Rx 8  89 FF FF 09 00 00 0C 00 
    267       592.983 DT     0251 Rx 0  
    268       593.173 DT     0151 Rx 6  00 00 00 00 00 00 
    269       596.875 DT     0251 Rx 0  
    270       597.072 DT     0151 Rx 6  00 00 00 00 00 00 
    271       601.076 DT     0252 Rx 0  
    272       601.273 DT     0152 Rx 6  00 00 00 00 00 00 
    273       604.742 DT     0252 Rx 0  
    274       604.910 DT     0152 Rx 6  00 00 00 00 00 00 
    275       608.645 DT     0211 Rx 8  00 00 00 00 14 0A DC 05 
    276       608.951 DT     0111 Rx 8  41 00 00 0A 00 00 E0 FF 
    277       612.907 DT     0211 Rx 8  00 00 00 00 14 0A DC 05 
    278       613.221 DT     0111 Rx 8  41 00 00 0A 00 00 D1 FF 
    279       616.828 DT     0212 Rx 8  00 00 00 00 14 0B DC 05 
    280       617.140 DT     0112 Rx 8  A4 01 00 0B 00 00 44 FF 
    281       620.593 DT     0212 Rx 8  00 00 00 00 14 0B DC 05 
    282       620.869 DT     0112 Rx 8  A4 01 00 0B 00 00 44 FF 
    283       625.987 DT     0213 Rx 8  00 00 00 00 14 0C DC 05 
    284       626.284 DT     0113 Rx 8  89 FF FF 0C 00 00 13 00 
    285       629.740 DT     0213 Rx 8  00 00 00 00 14 0C DC 05 
    286       630.015 DT     0113 Rx 8  89 FF FF 0C 00 00 13 00 
    287       633.605 DT     0251 Rx 0  
    288       633.803 DT     0151 Rx 6  00 00 00 00 00 00 
    289       637.495 DT     0251 Rx 0  
    290       637.648 DT     0151 Rx 6  00 00 00 00 00 00 
    291       642.334 DT     0252 Rx 0  
    292       642.503 DT     0152 Rx 6  00 00 00 00 00 00 
    293       645.447 DT     0252 Rx 0  
    294       645.657 DT     0152 Rx 6  00 00 00 00 00 00 
    295       649.709 DT     0211 Rx 8  00 00 00 00 14 0D DC 05 
    296       650.003 DT     0111 Rx 8  41 00 00 0D 00 00 E0 FF 
    297       652.773 DT     0211 Rx 8  00 00 00 00 14 0D DC 05 
    298       653.091 DT     0111 Rx 8  41 00 00 0D 00 00 E0 FF 
    299       656.822 DT     0212 Rx 8  00 00 00 00 14 0E DC 05 
    300       657.131 DT     0112 Rx 8  A4 01 00 0E 00 00 53 FF 
    301       660.722 DT     0212 Rx 8  00 00 00 00 14 0E DC 05 
    302       661.044 DT     0112 Rx 8  A4 01 00 0E 00 00 53 FF 
    303       664.789 DT     0213 Rx 8  00 00 00 00 14 0F DC 05 
    304       665.097 DT     0113 Rx 8  89 FF FF 0F 00 00 13 00 
    305       668.650 DT     0213 Rx 8  00 00 00 00 14 0F DC 05 
    306       668.940 DT     0113 Rx 8  89 FF FF 0F 00 00 0E 00 
    307       672.650 DT     0251 Rx 0  
    308       672.817 DT     0151 Rx 6  00 00 00 00 00 00 
    309       677.667 DT     0251 Rx 0  
    310       677.834 DT     0151 Rx 6  00 00 00 00 00 00 
    311       681.664 DT     0252 Rx 0  
    312       681.832 DT     0152 Rx 6  00 00 00 00 00 00 
    313       685.525 DT     0252 Rx 0  
    314       685.736 DT     0152 Rx 6  00 00 00 00 00 00 
    315       689.498 DT     0211 Rx 8  00 00 00 00 14 00 DC 05 
    316       689.804 DT     0111 Rx 8  41 00 00 00 00 00 EF FF 
    317       693.363 DT     0211 Rx 8  00 00 00 00 14 00 DC 05 
    318       693.667 DT     0111 Rx 8  41 00 00 00 00 00 FD FF 
    319       697.401 DT     0212 Rx 8  00 00 00 00 14 01 DC 05 
    320       697.712 DT     0112 Rx 8  9A 01 00 01 00 00 53 FF 
    321       701.397 DT     0212 Rx 8  00 00 00 00 14 01 DC 05 
    322       701.702 DT     0112 Rx 8  9A 01 00 01 00 00 44 FF 
    323       705.305 DT     0213 Rx 8  00 00 00 00 14 02 DC 05 
    324       705.603 DT     0113 Rx 8  98 FF FF 02 00 00 0E 00 
    325       709.306 DT     0213 Rx 8  00 00 00 00 14 02 DC 05 
    326       709.582 DT     0113 Rx 8  98 FF FF 02 00 00 13 00 
    327       713.372 DT     0251 Rx 0  
    328       713.558 DT     0151 Rx 6  00 00 00 00 00 00 
    329       717.359 DT     0251 Rx 0  
    330       717.560 DT     0151 Rx 6  00 00 00 00 00 00 
    331       721.602 DT     0252 Rx 0  
    332       721.803 DT     0152 Rx 6  00 00 00 00 00 00 
    333       725.311 DT     0252 Rx 0  
    334       725.478 DT     0152 Rx 6  00 00 00 00 00 00 
    335       729.858 DT     0211 Rx 8  00 00 00 00 14 03 DC 05 
    336       730.163 DT     0111 Rx 8  36 00 00 03 00 00 E0 FF 
    337       733.540 DT     0211 Rx 8  00 00 00 00 14 03 DC 05 
    338       733.816 DT     0111 Rx 8  36 00 00 03 00 00 EF FF 
    339       737.380 DT     0212 Rx 8  00 00 00 00 14 04 DC 05 
    340       737.686 DT     0112 Rx 8  95 01 00 04 00 00 61 FF 
    341       741.620 DT     0212 Rx 8  00 00 00 00 14 04 DC 05 
    342       741.939 DT     0112 Rx 8  95 01 00 04 00 00 61 FF 
    343       745.308 DT     0213 Rx 8  00 00 00 00 14 05 DC 05 
    344       745.591 DT     0113 Rx 8  98 FF FF 05 00 00 09 00 
    345       749.324 DT     0213 Rx 8  00 00 00 00 14 05 DC 05 
    346       749.584 DT     0113 Rx 8  98 FF FF 05 00 00 13 00 
    347       753.557 DT     0251 Rx 0  
    348       753.752 DT     0151 Rx 6  00 00 00 00 00 00 
    349       757.455 DT     0251 Rx 0  
    350       757.654 DT     0151 Rx 6  00 00 00 00 00 00 
    351       761.477 DT     0252 Rx 0  
    352       761.644 DT     0152 Rx 6  00 00 00 00 00 00 
    353       765.159 DT     0252 Rx 0  
    354       765.334 DT     0152 Rx 6  00 00 00 00 00 00 
    355       769.369 DT     0211 Rx 8  00 00 00 00 14 06 DC 05 
    356       769.675 DT     0111 Rx 8  36 00 00 06 00 00 FD FF 
    357       773.394 DT     0211 Rx 8  00 00 00 00 14 06 DC 05 
    358       773.729 DT     0111 Rx 8  36 00 00 06 00 00 E0 FF 
    359       777.488 DT     0212 Rx 8  00 00 00 00 14 07 DC 05 
    360       777.797 DT     0112 Rx 8  95 01 00 07 00 00 53 FF 
    361       781.394 DT     0212 Rx 8  00 00 00 00 14 07 DC 05 
    362       781.753 DT     0112 Rx 8  95 01 00 07 00 00 53 FF 
    363       785.476 DT     0213 Rx 8  00 00 00 00 14 08 DC 05 
    364       785.793 DT     0113 Rx 8  98 FF FF 08 00 00 15 00 
    365       789.335 DT     0213 Rx 8  00 00 00 00 14 08 DC 05 
    366       789.655 DT     0113 Rx 8  98 FF FF 08 00 00 10 00 
    367       793.442 DT     0251 Rx 0  
    368       793.616 DT     0151 Rx 6  00 00 00 00 00 00 
    369       797.082 DT     0251 Rx 0  
    370       797.294 DT     0151 Rx 6  00 00 00 00 00 00 
    371       801.365 DT     0252 Rx 0  
    372       801.555 DT     0152 Rx 6  00 00 00 00 00 00 
    373       805.309 DT     0252 Rx 0  
    374       805.519 DT     0152 Rx 6  00 00 00 00 00 00 
    375       809.375 DT     0211 Rx 8  00 00 00 00 14 09 DC 05 
    376       809.669 DT     0111 Rx 8  36 00 00 09 00 00 EF FF 
    377       813.067 DT     0211 Rx 8  00 00 00 00 14 09 DC 05 
    378       813.402 DT     0111 Rx 8  36 00 00 09 00 00 E0 FF 
    379       817.121 DT     0212 Rx 8  00 00 00 00 14 0A DC 05 
    380       817.434 DT     0112 Rx 8  95 01 00 0A 00 00 53 FF 
    381       821.008 DT     0212 Rx 8  00 00 00 00 14 0A DC 05 
    382       821.282 DT     0112 Rx 8  95 01 00 0A 00 00 34 FF 
    383       825.196 DT     0213 Rx 8  00 00 00 00 14 0B DC 05 
    384       825.491 DT     0113 Rx 8  98 FF FF 0B 00 00 13 00 
    385       829.072 DT     0213 Rx 8  00 00 00 00 14 0B DC 05 
    386       829.371 DT     0113 Rx 8  98 FF FF 0B 00 00 0E 00 
    387       833.390 DT     0251 Rx 0  
    388       833.585 DT     0151 Rx 6  00 00 00 00 00 00 
    389       837.180 DT     0251 Rx 0  
    390       837.376 DT     0151 Rx 6  00 00 00 00 00 00 
    391       841.324 DT     0252 Rx 0  
    392       841.525 DT     0152 Rx 6  00 00 00 00 00 00 
    393       845.164 DT     0252 Rx 0  
    394       845.363 DT     0152 Rx 6  00 00 00 00 00 00 
    395       849.070 DT     0211 Rx 8  00 00 00 00 14 0C DC 05 
    396       849.360 DT     0111 Rx 8  36 00 00 0C 00 00 EF FF 
    397       853.138 DT     0211 Rx 8  00 00 00 00 14 0C DC 05 
    398       853.427 DT     0111 Rx 8  36 00 00 0C 00 00 FD FF 
    399       857.187 DT     0212 Rx 8  00 00 00 00 14 0D DC 05 
    400       857.499 DT     0112 Rx 8  95 01 00 0D 00 00 44 FF 
    401       861.069 DT     0212 Rx 8  00 00 00 00 14 0D DC 05 
    402       861.350 DT     0112 Rx 8  85 01 00 0D 00 00 61 FF 
    403       865.032 DT     0213 Rx 8  00 00 00 00 14 0E DC 05 
    404       865.307 DT     0113 Rx 8  98 FF FF 0E 00 00 13 00 
    405       869.018 DT     0213 Rx 8  00 00 00 00 14 0E DC 05 
    406       869.322 DT     0113 Rx 8  98 FF FF 0E 00 00 0B 00 
    407       873.005 DT     0251 Rx 0  
    408       873.211 DT     0151 Rx 6  00 00 00 00 00 00 
    409       876.953 DT     0251 Rx 0  
    410       877.129 DT     0151 Rx 6  00 00 00 00 00 00 
    411       881.025 DT     0252 Rx 0  
    412       881.229 DT     0152 Rx 6  00 00 00 00 00 00 
    413       884.927 DT     0252 Rx 0  
    414       885.087 DT     0152 Rx 6  00 00 00 00 00 00 
    415       889.110 DT     0211 Rx 8  00 00 00 00 14 0F DC 05 
    416       889.403 DT     0111 Rx 8  36 00 00 0F 00 00 E0 FF 
    417       892.926 DT     0211 Rx 8  00 00 00 00 14 0F DC 05 
    418       893.234 DT     0111 Rx 8  36 00 00 0F 00 00 E0 FF 
    419       896.948 DT     0212 Rx 8  00 00 00 00 14 00 DC 05 
    420       897.268 DT     0112 Rx 8  80 01 00 00 00 00 70 FF 
    421       901.051 DT     0212 Rx 8  00 00 00 00 14 00 DC 05 
    422       901.367 DT     0112 Rx 8  80 01 00 00 00 00 35 FF 
    423       905.426 DT     0213 Rx 8  00 00 00 00 14 01 DC 05 
    424       905.731 DT     0113 Rx 8  98 FF FF 01 00 00 1A 00 
    425       920.179 DT     0213 Rx 8  00 00 00 00 14 01 DC 05 
    426       920.485 DT     0113 Rx 8  98 FF FF 01 00 00 10 00 
    427       921.523 DT     0251 Rx 0  
    428       921.676 DT     0151 Rx 6  00 00 00 00 00 00 
    429       924.994 DT     0251 Rx 0  
    430       925.171 DT     0151 Rx 6  00 00 00 00 00 00 
    431       928.951 DT     0252 Rx 0  
    432       929.147 DT     0152 Rx 6  00 00 00 00 00 00 
    433       932.833 DT     0252 Rx 0  
    434       933.003 DT     0152 Rx 6  00 00 00 00 00 00 
    435       936.786 DT     0211 Rx 8  00 00 00 00 14 02 DC 05 
    436       937.076 DT     0111 Rx 8  36 00 00 02 00 00 EF FF 
    437       940.964 DT     0211 Rx 8  00 00 00 00 14 02 DC 05 
    438       941.282 DT     0111 Rx 8  36 00 00 02 00 00 E0 FF 
    439       944.735 DT     0212 Rx 8  00 00 00 00 14 03 DC 05 
    440       945.050 DT     0112 Rx 8  80 01 00 03 00 00 60 FF 
    441       948.696 DT     0212 Rx 8  00 00 00 00 14 03 DC 05 
    442       949.020 DT     0112 Rx 8  80 01 00 03 00 00 61 FF 
    443       953.023 DT     0213 Rx 8  00 00 00 00 14 04 DC 05 
    444       953.316 DT     0113 Rx 8  98 FF FF 04 00 00 0E 00 
    445       956.930 DT     0213 Rx 8  00 00 00 00 14 04 DC 05 
    446       957.256 DT     0113 Rx 8  98 FF FF 04 00 00 04 00 
    447       961.035 DT     0251 Rx 0  
    448       961.231 DT     0151 Rx 6  00 00 00 00 00 00 
    449       964.882 DT     0251 Rx 0  
    450       965.089 DT     0151 Rx 6  00 00 00 00 00 00 
    451       969.092 DT     0252 Rx 0  
    452       969.278 DT     0152 Rx 6  00 00 00 00 00 00 
    453       972.865 DT     0252 Rx 0  
    454       973.064 DT     0152 Rx 6  00 00 00 00 00 00 
    455       976.956 DT     0211 Rx 8  00 00 00 00 14 05 DC 05 
    456       977.271 DT     0111 Rx 8  36 00 00 05 00 00 EF FF 
    457       980.724 DT     0211 Rx 8  00 00 00 00 14 05 DC 05 
    458       981.000 DT     0111 Rx 8  36 00 00 05 00 00 EF FF 
    459       984.970 DT     0212 Rx 8  00 00 00 00 14 06 DC 05 
    460       985.283 DT     0112 Rx 8  80 01 00 06 00 00 52 FF 
    461       988.840 DT     0212 Rx 8  00 00 00 00 14 06 DC 05 
    462       989.115 DT     0112 Rx 8  80 01 00 06 00 00 52 FF 
    463       992.896 DT     0213 Rx 8  00 00 00 00 14 07 DC 05 
    464       993.201 DT     0113 Rx 8  98 FF FF 07 00 00 0C 00 
    465       996.831 DT     0213 Rx 8  00 00 00 00 14 07 DC 05 
    466       997.109 DT     0113 Rx 8  98 FF FF 07 00 00 0C 00 
    467      1001.700 DT     0251 Rx 0  
    468      1001.894 DT     0151 Rx 6  00 00 00 00 00 00 
    469      1004.735 DT     0251 Rx 0  
    470      1004.895 DT     0151 Rx 6  00 00 00 00 00 00 
    471      1009.805 DT     0252 Rx 0  
    472      1009.966 DT     0152 Rx 6  00 00 00 00 00 00 
    473      1013.574 DT     0211 Rx 8  00 00 00 00 14 08 DC 05 
    474      1013.900 DT     0111 Rx 8  36 00 00 08 00 00 EF FF 
    475      1017.528 DT     0211 Rx 8  00 00 00 00 14 08 DC 05 
    476      1017.846 DT     0111 Rx 8  36 00 00 08 00 00 EF FF 
    477      1021.861 DT     0212 Rx 8  00 00 00 00 14 09 DC 05 
    478      1022.178 DT     0112 Rx 8  9A 01 00 09 00 00 53 FF 
    479      1024.745 DT     0212 Rx 8  00 00 00 00 14 09 DC 05 
    480      1025.049 DT     0112 Rx 8  9F 01 00 09 00 00 61 FF 
    481      1028.811 DT     0213 Rx 8  00 00 00 00 14 0A DC 05 
    482      1029.120 DT     0113 Rx 8  98 FF FF 0A 00 00 0E 00 
    483      1033.671 DT     0213 Rx 8  00 00 00 00 14 0A DC 05 
    484      1033.984 DT     0113 Rx 8  98 FF FF 0A 00 00 10 00 
    485      1036.799 DT     0251 Rx 0  
    486      1036.993 DT     0151 Rx 6  00 00 00 00 00 00 
    487      1040.922 DT     0252 Rx 0  
    488      1041.130 DT     0152 Rx 6  00 00 00 00 00 00 
    489      1045.535 DT     0252 Rx 0  
    490      1045.736 DT     0152 Rx 6  00 00 00 00 00 00 
    491      1049.623 DT     0211 Rx 8  00 00 00 00 14 0B DC 05 
    492      1049.932 DT     0111 Rx 8  36 00 00 0B 00 00 EF FF 
    493      1053.473 DT     0211 Rx 8  00 00 00 00 14 0B DC 05 
    494      1053.765 DT     0111 Rx 8  36 00 00 0B 00 00 E0 FF 
    495      1056.652 DT     0212 Rx 8  00 00 00 00 14 0C DC 05 
    496      1056.971 DT     0112 Rx 8  FD 01 00 0C 00 00 07 FF 
    497      1061.506 DT     0213 Rx 8  00 00 00 00 14 0D DC 05 
    498      1061.823 DT     0113 Rx 8  A7 FF FF 0D 00 00 0E 00 
    499      1065.360 DT     0213 Rx 8  00 00 00 00 14 0D DC 05 
    500      1065.661 DT     0113 Rx 8  A7 FF FF 0D 00 00 0C 00 
    501      1069.427 DT     0251 Rx 0  
    502      1069.615 DT     0151 Rx 6  00 00 00 00 00 00 
    503      1073.703 DT     0251 Rx 0  
    504      1073.877 DT     0151 Rx 6  00 00 00 00 00 00 
    505      1091.082 DT     0252 Rx 0  
    506      1091.279 DT     0152 Rx 6  00 00 00 00 00 00 
    507      1093.535 DT     0211 Rx 8  00 00 00 00 14 0E DC 05 
    508      1093.844 DT     0111 Rx 8  25 00 00 0E 00 00 ED FF 
    509      1097.549 DT     0211 Rx 8  00 00 00 00 14 0E DC 05 
    510      1097.871 DT     0111 Rx 8  25 00 00 0E 00 00 EF FF 
    511      1101.521 DT     0212 Rx 8  00 00 00 00 14 0F DC 05 
    512      1101.803 DT     0112 Rx 8  31 03 00 0F 01 00 6D FE 
    513      1105.338 DT     0212 Rx 8  00 00 00 00 14 0F DC 05 
    514      1105.647 DT     0112 Rx 8  5A 03 00 0F 01 00 52 FE 
    515      1109.416 DT     0213 Rx 8  00 00 00 00 14 00 DC 05 
    516      1109.722 DT     0113 Rx 8  89 FF FF 00 00 00 0E 00 
    517      1113.283 DT     0213 Rx 8  00 00 00 00 14 00 DC 05 
    518      1113.602 DT     0113 Rx 8  89 FF FF 00 00 00 13 00 
    519      1117.416 DT     0251 Rx 0  
    520      1117.607 DT     0151 Rx 6  00 00 00 00 00 00 
    521      1121.284 DT     0251 Rx 0  
    522      1121.450 DT     0151 Rx 6  00 00 00 00 00 00 
    523      1136.976 DT     0252 Rx 0  
    524      1137.172 DT     0152 Rx 6  00 00 00 00 00 00 
    525      1138.322 DT     0252 Rx 0  
    526      1138.489 DT     0152 Rx 6  00 00 00 00 00 00 
    527      1141.488 DT     0211 Rx 8  00 00 00 00 14 01 DC 05 
    528      1141.794 DT     0111 Rx 8  1A 00 00 01 00 00 EF FF 
    529      1145.418 DT     0211 Rx 8  00 00 00 00 14 01 DC 05 
    530      1145.741 DT     0111 Rx 8  14 00 00 01 00 00 FC FF 
    531      1149.625 DT     0212 Rx 8  00 00 00 00 14 02 DC 05 
    532      1149.944 DT     0112 Rx 8  B3 07 00 02 04 00 61 FE 
    533      1153.385 DT     0212 Rx 8  00 00 00 00 14 02 DC 05 
    534      1153.696 DT     0112 Rx 8  35 08 00 02 05 00 49 FE 
    535      1157.478 DT     0213 Rx 8  00 00 00 00 14 03 DC 05 
    536      1157.800 DT     0113 Rx 8  7A FF FF 03 00 00 0E 00 
    537      1161.366 DT     0213 Rx 8  00 00 00 00 14 03 DC 05 
    538      1161.667 DT     0113 Rx 8  7A FF FF 03 00 00 15 00 
    539      1165.622 DT     0251 Rx 0  
    540      1165.897 DT     0151 Rx 6  00 00 00 00 00 00 
    541      1169.295 DT     0251 Rx 0  
    542      1169.492 DT     0151 Rx 6  00 00 00 00 00 00 
    543      1173.409 DT     0252 Rx 0  
    544      1173.600 DT     0152 Rx 6  00 00 00 00 00 00 
    545      1177.143 DT     0252 Rx 0  
    546      1177.348 DT     0152 Rx 6  00 00 00 00 00 00 
    547      1181.161 DT     0211 Rx 8  00 00 00 00 14 04 DC 05 
    548      1181.470 DT     0111 Rx 8  09 00 00 04 00 00 FC FF 
    549      1185.134 DT     0211 Rx 8  00 00 00 00 14 04 DC 05 
    550      1185.435 DT     0111 Rx 8  FA FF FF 04 00 00 FC FF 
    551      1189.097 DT     0212 Rx 8  00 00 00 00 14 05 DC 05 
    552      1189.399 DT     0112 Rx 8  F7 0F 00 05 0A 00 46 FE 
    553      1193.038 DT     0212 Rx 8  00 00 00 00 14 05 DC 05 
    554      1193.311 DT     0112 Rx 8  47 11 00 05 0B 00 56 FE 
    555      1197.407 DT     0213 Rx 8  00 00 00 00 14 06 DC 05 
    556      1197.712 DT     0113 Rx 8  5C FF FF 06 00 00 18 00 
    557      1201.160 DT     0213 Rx 8  00 00 00 00 14 06 DC 05 
    558      1201.466 DT     0113 Rx 8  3E FF FF 06 00 00 22 00 
    559      1205.081 DT     0251 Rx 0  
    560      1205.283 DT     0151 Rx 6  00 00 00 00 00 00 
    561      1209.022 DT     0251 Rx 0  
    562      1209.220 DT     0151 Rx 6  00 00 00 00 00 00 
    563      1213.224 DT     0252 Rx 0  
    564      1213.430 DT     0152 Rx 6  00 00 00 00 00 00 
    565      1217.123 DT     0252 Rx 0  
    566      1217.319 DT     0152 Rx 6  00 00 00 00 00 00 
    567      1221.081 DT     0211 Rx 8  00 00 00 00 14 07 DC 05 
    568      1221.389 DT     0111 Rx 8  3C FF FF 07 00 00 7A 00 
    569      1225.018 DT     0211 Rx 8  00 00 00 00 14 07 DC 05 
    570      1225.327 DT     0111 Rx 8  26 FF FF 07 00 00 87 00 
    571      1229.045 DT     0212 Rx 8  00 00 00 00 14 08 DC 05 
    572      1229.340 DT     0112 Rx 8  A4 1D 00 08 0E 00 5C FE 
    573      1233.198 DT     0212 Rx 8  00 00 00 00 14 08 DC 05 
    574      1233.499 DT     0112 Rx 8  30 1F 00 08 0E 00 62 FE 
    575      1236.980 DT     0213 Rx 8  00 00 00 00 14 09 DC 05 
    576      1237.281 DT     0113 Rx 8  B7 FE FF 09 00 00 37 00 
    577      1240.953 DT     0213 Rx 8  00 00 00 00 14 09 DC 05 
    578      1241.234 DT     0113 Rx 8  B7 FE FF 09 00 00 37 00 
    579      1245.561 DT     0251 Rx 0  
    580      1245.761 DT     0151 Rx 6  00 00 00 00 00 00 
    581      1263.188 DT     0251 Rx 0  
    582      1263.354 DT     0151 Rx 6  00 00 00 00 00 00 
    583      1265.602 DT     0252 Rx 0  
    584      1265.770 DT     0152 Rx 6  00 00 00 00 00 00 
    585      1268.988 DT     0211 Rx 8  00 00 00 00 14 0A DC 05 
    586      1269.317 DT     0111 Rx 8  0A FE FF 0A FF FF FA 00 
    587      1272.939 DT     0211 Rx 8  00 00 00 00 14 0A DC 05 
    588      1273.218 DT     0111 Rx 8  F4 FD FF 0A FF FF FA 00 
    589      1276.941 DT     0212 Rx 8  00 00 00 00 14 0B DC 05 
    590      1277.267 DT     0112 Rx 8  DD 2E 00 0B 0D 00 10 FE 
    591      1280.724 DT     0212 Rx 8  00 00 00 00 14 0B DC 05 
    592      1281.021 DT     0112 Rx 8  26 30 00 0B 0D 00 D9 FD 
    593      1284.980 DT     0213 Rx 8  00 00 00 00 14 0C DC 05 
    594      1285.250 DT     0113 Rx 8  21 FE FF 0C 00 00 42 00 
    595      1288.811 DT     0213 Rx 8  00 00 00 00 14 0C DC 05 
    596      1289.095 DT     0113 Rx 8  12 FE FF 0C 00 00 50 00 
    597      1292.888 DT     0251 Rx 0  
    598      1293.054 DT     0151 Rx 6  00 00 00 00 00 00 
    599      1296.775 DT     0251 Rx 0  
    600      1296.941 DT     0151 Rx 6  00 00 00 00 00 00 
    601      1301.029 DT     0252 Rx 0  
    602      1301.197 DT     0152 Rx 6  00 00 00 00 00 00 
    603      1304.825 DT     0252 Rx 0  
    604      1304.993 DT     0152 Rx 6  00 00 00 00 00 00 
    605      1309.035 DT     0211 Rx 8  00 00 00 00 14 0D DC 05 
    606      1309.367 DT     0111 Rx 8  A0 FD FF 0D 00 00 ED 00 
    607      1312.734 DT     0211 Rx 8  00 00 00 00 14 0D DC 05 
    608      1313.045 DT     0111 Rx 8  A0 FD FF 0D 00 00 09 01 
    609      1316.793 DT     0212 Rx 8  00 00 00 00 14 0E DC 05 
    610      1317.089 DT     0112 Rx 8  F3 38 00 0E 09 00 D8 FD 
    611      1320.910 DT     0212 Rx 8  00 00 00 00 14 0E DC 05 
    612      1321.206 DT     0112 Rx 8  B2 39 00 0E 08 00 C2 FD 
    613      1324.774 DT     0213 Rx 8  00 00 00 00 14 0F DC 05 
    614      1325.090 DT     0113 Rx 8  02 FE FF 0F 00 00 48 00 
    615      1328.758 DT     0213 Rx 8  00 00 00 00 14 0F DC 05 
    616      1329.035 DT     0113 Rx 8  02 FE FF 0F 00 00 50 00 
    617      1333.039 DT     0251 Rx 0  
    618      1333.242 DT     0151 Rx 6  00 00 00 00 00 00 
    619      1336.718 DT     0251 Rx 0  
    620      1336.918 DT     0151 Rx 6  00 00 00 00 00 00 
    621      1340.846 DT     0252 Rx 0  
    622      1341.049 DT     0152 Rx 6  00 00 00 00 00 00 
    623      1344.658 DT     0252 Rx 0  
    624      1344.867 DT     0152 Rx 6  00 00 00 00 00 00 
    625      1348.774 DT     0211 Rx 8  00 00 00 00 14 00 DC 05 
    626      1349.051 DT     0111 Rx 8  F9 FD FF 00 00 00 C2 00 
    627      1352.750 DT     0211 Rx 8  00 00 00 00 14 00 DC 05 
    628      1353.071 DT     0111 Rx 8  0F FE FF 00 00 00 B5 00 
    629      1356.714 DT     0212 Rx 8  00 00 00 00 14 01 DC 05 
    630      1357.024 DT     0112 Rx 8  88 3E 00 01 04 00 92 FD 
    631      1360.732 DT     0212 Rx 8  00 00 00 00 14 01 DC 05 
    632      1361.049 DT     0112 Rx 8  D6 3E 00 01 04 00 7D FD 
    633      1364.842 DT     0213 Rx 8  00 00 00 00 14 02 DC 05 
    634      1365.117 DT     0113 Rx 8  6C FE FF 02 00 00 3A 00 
    635      1368.835 DT     0213 Rx 8  00 00 00 00 14 02 DC 05 
    636      1369.147 DT     0113 Rx 8  7B FE FF 02 00 00 30 00 
    637      1373.243 DT     0251 Rx 0  
    638      1373.408 DT     0151 Rx 6  00 00 00 00 00 00 
    639      1387.351 DT     0252 Rx 0  
    640      1387.519 DT     0152 Rx 6  00 00 00 00 00 00 
    641      1389.650 DT     0252 Rx 0  
    642      1389.819 DT     0152 Rx 6  00 00 00 00 00 00 
    643      1393.593 DT     0211 Rx 8  00 00 00 00 14 03 DC 05 
    644      1393.901 DT     0111 Rx 8  15 FF FF 03 01 00 34 00 
    645      1396.747 DT     0211 Rx 8  00 00 00 00 14 03 DC 05 
    646      1397.032 DT     0111 Rx 8  26 FF FF 03 01 00 34 00 
    647      1401.815 DT     0212 Rx 8  00 00 00 00 14 04 DC 05 
    648      1402.093 DT     0112 Rx 8  B2 3E 00 04 FF FF EA FD 
    649      1404.717 DT     0212 Rx 8  00 00 00 00 14 04 DC 05 
    650      1404.995 DT     0112 Rx 8  8E 3E 00 04 FF FF D9 FD 
    651      1408.798 DT     0213 Rx 8  00 00 00 00 14 05 DC 05 
    652      1409.076 DT     0113 Rx 8  D5 FE FF 05 00 00 28 00 
    653      1412.682 DT     0213 Rx 8  00 00 00 00 14 05 DC 05 
    654      1412.960 DT     0113 Rx 8  D5 FE FF 05 00 00 30 00 
    655      1417.657 DT     0251 Rx 0  
    656      1417.895 DT     0151 Rx 6  00 00 00 00 00 00 
    657      1421.729 DT     0252 Rx 0  
    658      1421.900 DT     0152 Rx 6  00 00 00 00 00 00 
    659      1425.496 DT     0252 Rx 0  
    660      1425.651 DT     0152 Rx 6  00 00 00 00 00 00 
    661      1429.462 DT     0211 Rx 8  00 00 00 00 14 06 DC 05 
    662      1429.755 DT     0111 Rx 8  42 FF FF 06 00 00 4F 00 
    663      1433.835 DT     0211 Rx 8  00 00 00 00 14 06 DC 05 
    664      1434.127 DT     0111 Rx 8  37 FF FF 06 00 00 50 00 
    665      1437.518 DT     0212 Rx 8  00 00 00 00 14 07 DC 05 
    666      1437.792 DT     0112 Rx 8  F7 3B 00 07 FD FF EA FE 
    667      1441.357 DT     0212 Rx 8  00 00 00 00 14 07 DC 05 
    668      1441.630 DT     0112 Rx 8  75 3B 00 07 FC FF ED FE 
    669      1445.679 DT     0213 Rx 8  00 00 00 00 14 08 DC 05 
    670      1445.983 DT     0113 Rx 8  8A FE FF 08 00 00 37 00 
    671      1449.424 DT     0213 Rx 8  00 00 00 00 14 08 DC 05 
    672      1449.733 DT     0113 Rx 8  8A FE FF 08 00 00 3A 00 
    673      1453.417 DT     0251 Rx 0  
    674      1453.584 DT     0151 Rx 6  00 00 00 00 00 00 
    675      1457.403 DT     0251 Rx 0  
    676      1457.550 DT     0151 Rx 6  00 00 00 00 00 00 
    677      1461.559 DT     0252 Rx 0  
    678      1461.765 DT     0152 Rx 6  00 00 00 00 00 00 
    679      1465.386 DT     0252 Rx 0  
    680      1465.588 DT     0152 Rx 6  00 00 00 00 00 00 
    681      1469.464 DT     0211 Rx 8  00 00 00 00 14 09 DC 05 
    682      1469.717 DT     0111 Rx 8  A6 FE FF 09 00 00 95 00 
    683      1473.308 DT     0211 Rx 8  00 00 00 00 14 09 DC 05 
    684      1473.568 DT     0111 Rx 8  90 FE FF 09 00 00 A6 00 
    685      1477.385 DT     0212 Rx 8  00 00 00 00 14 0A DC 05 
    686      1477.669 DT     0112 Rx 8  76 35 00 0A F9 FF F8 FF 
    687      1481.272 DT     0212 Rx 8  00 00 00 00 14 0A DC 05 
    688      1481.583 DT     0112 Rx 8  92 34 00 0A F8 FF 1C 00 
    689      1485.458 DT     0213 Rx 8  00 00 00 00 14 0B DC 05 
    690      1485.731 DT     0113 Rx 8  F4 FD FF 0B 00 00 55 00 
    691      1489.221 DT     0213 Rx 8  00 00 00 00 14 0B DC 05 
    692      1489.513 DT     0113 Rx 8  E5 FD FF 0B 00 00 55 00 
    693      1493.295 DT     0251 Rx 0  
    694      1493.465 DT     0151 Rx 6  00 00 00 00 00 00 
    695      1497.437 DT     0251 Rx 0  
    696      1497.636 DT     0151 Rx 6  00 00 00 00 00 00 
    697      1501.475 DT     0252 Rx 0  
    698      1501.644 DT     0152 Rx 6  00 00 00 00 00 00 
    699      1505.178 DT     0252 Rx 0  
    700      1505.346 DT     0152 Rx 6  00 00 00 00 00 00 
    701      1509.493 DT     0211 Rx 8  00 00 00 00 14 0C DC 05 
    702      1509.765 DT     0111 Rx 8  E3 FD FF 0C 00 00 ED 00 
    703      1513.379 DT     0211 Rx 8  00 00 00 00 14 0C DC 05 
    704      1513.666 DT     0111 Rx 8  D2 FD FF 0C 00 00 FA 00 
    705      1517.369 DT     0212 Rx 8  00 00 00 00 14 0D DC 05 
    706      1517.644 DT     0112 Rx 8  F5 2A 00 0D F5 FF 45 01 
    707      1521.439 DT     0212 Rx 8  00 00 00 00 14 0D DC 05 
    708      1521.760 DT     0112 Rx 8  CC 29 00 0D F4 FF 40 01 
    709      1525.515 DT     0213 Rx 8  00 00 00 00 14 0E DC 05 
    710      1525.807 DT     0113 Rx 8  7C FD FF 0E 00 00 64 00 
    711      1529.391 DT     0213 Rx 8  00 00 00 00 14 0E DC 05 
    712      1529.719 DT     0113 Rx 8  7C FD FF 0E 00 00 67 00 
    713      1533.478 DT     0251 Rx 0  
    714      1533.657 DT     0151 Rx 6  00 00 00 00 00 00 
    715      1537.360 DT     0251 Rx 0  
    716      1537.555 DT     0151 Rx 6  00 00 00 00 00 00 
    717      1541.360 DT     0252 Rx 0  
    718      1541.561 DT     0152 Rx 6  00 00 00 00 00 00 
    719      1545.151 DT     0252 Rx 0  
    720      1545.353 DT     0152 Rx 6  00 00 00 00 00 00 
    721      1549.345 DT     0211 Rx 8  00 00 00 00 14 0F DC 05 
    722      1549.620 DT     0111 Rx 8  7F FD FF 0F 00 00 0C 01 
    723      1553.319 DT     0211 Rx 8  00 00 00 00 14 0F DC 05 
    724      1553.639 DT     0111 Rx 8  7F FD FF 0F 00 00 0C 01 
    725      1557.461 DT     0212 Rx 8  00 00 00 00 14 00 DC 05 
    726      1557.780 DT     0112 Rx 8  57 1E 00 00 F3 FF 98 01 
    727      1561.297 DT     0212 Rx 8  00 00 00 00 14 00 DC 05 
    728      1561.622 DT     0112 Rx 8  0E 1D 00 00 F3 FF 8D 01 
    729      1565.879 DT     0213 Rx 8  00 00 00 00 14 01 DC 05 
    730      1566.158 DT     0113 Rx 8  40 FD FF 01 00 00 6A 00 
    731      1569.086 DT     0213 Rx 8  00 00 00 00 14 01 DC 05 
    732      1569.396 DT     0113 Rx 8  40 FD FF 01 00 00 6E 00 
    733      1573.083 DT     0251 Rx 0  
    734      1573.303 DT     0151 Rx 6  00 00 00 00 00 00 
    735      1576.985 DT     0251 Rx 0  
    736      1577.151 DT     0151 Rx 6  00 00 00 00 00 00 
    737      1581.196 DT     0252 Rx 0  
    738      1581.407 DT     0152 Rx 6  00 00 00 00 00 00 
    739      1585.033 DT     0252 Rx 0  
    740      1585.234 DT     0152 Rx 6  00 00 00 00 00 00 
    741      1589.086 DT     0211 Rx 8  00 00 00 00 14 02 DC 05 
    742      1589.403 DT     0111 Rx 8  52 FD FF 02 00 00 27 01 
    743      1593.006 DT     0211 Rx 8  00 00 00 00 14 02 DC 05 
    744      1593.330 DT     0111 Rx 8  52 FD FF 02 00 00 15 01 
    745      1597.026 DT     0212 Rx 8  00 00 00 00 14 03 DC 05 
    746      1597.316 DT     0112 Rx 8  B9 10 00 03 F1 FF 8B 01 
    747      1601.072 DT     0212 Rx 8  00 00 00 00 14 03 DC 05 
    748      1601.375 DT     0112 Rx 8  3F 0F 00 03 F1 FF 9E 01 
    749      1605.044 DT     0213 Rx 8  00 00 00 00 14 04 DC 05 
    750      1605.333 DT     0113 Rx 8  13 FD FF 04 00 00 73 00 
    751      1608.957 DT     0213 Rx 8  00 00 00 00 14 04 DC 05 
    752      1609.223 DT     0113 Rx 8  13 FD FF 04 00 00 70 00 
    753      1613.042 DT     0251 Rx 0  
    754      1613.232 DT     0151 Rx 6  00 00 00 00 00 00 
    755      1616.919 DT     0251 Rx 0  
    756      1617.113 DT     0151 Rx 6  00 00 00 00 00 00 
    757      1621.028 DT     0252 Rx 0  
    758      1621.233 DT     0152 Rx 6  00 00 00 00 00 00 
    759      1625.161 DT     0252 Rx 0  
    760      1625.328 DT     0152 Rx 6  00 00 00 00 00 00 
    761      1629.095 DT     0211 Rx 8  00 00 00 00 14 05 DC 05 
    762      1629.393 DT     0111 Rx 8  52 FD FF 05 00 00 18 01 
    763      1633.015 DT     0211 Rx 8  00 00 00 00 14 05 DC 05 
    764      1633.293 DT     0111 Rx 8  63 FD FF 05 00 00 09 01 
    765      1636.919 DT     0212 Rx 8  00 00 00 00 14 06 DC 05 
    766      1637.241 DT     0112 Rx 8  AF 00 00 06 EE FF 98 01 
    767      1641.077 DT     0212 Rx 8  00 00 00 00 14 06 DC 05 
    768      1641.382 DT     0112 Rx 8  DF FE FF 06 EE FF 90 01 
    769      1645.169 DT     0213 Rx 8  00 00 00 00 14 07 DC 05 
    770      1645.474 DT     0113 Rx 8  5E FD FF 07 00 00 64 00 
    771      1648.961 DT     0213 Rx 8  00 00 00 00 14 07 DC 05 
    772      1649.239 DT     0113 Rx 8  7C FD FF 07 00 00 64 00 
    773      1653.137 DT     0251 Rx 0  
    774      1653.333 DT     0151 Rx 6  00 00 00 00 00 00 
    775      1656.901 DT     0251 Rx 0  
    776      1657.106 DT     0151 Rx 6  00 00 00 00 00 00 
    777      1661.012 DT     0252 Rx 0  
    778      1661.214 DT     0152 Rx 6  00 00 00 00 00 00 
    779      1665.168 DT     0252 Rx 0  
    780      1665.336 DT     0152 Rx 6  00 00 00 00 00 00 
    781      1668.931 DT     0211 Rx 8  00 00 00 00 14 08 DC 05 
    782      1669.235 DT     0111 Rx 8  BC FD FF 08 00 00 DB 00 
    783      1672.789 DT     0211 Rx 8  00 00 00 00 14 08 DC 05 
    784      1673.089 DT     0111 Rx 8  C7 FD FF 08 00 00 E0 00 
    785      1676.851 DT     0212 Rx 8  00 00 00 00 14 09 DC 05 
    786      1677.148 DT     0112 Rx 8  E2 ED FF 09 EC FF 93 01 
    787      1680.748 DT     0212 Rx 8  00 00 00 00 14 09 DC 05 
    788      1681.051 DT     0112 Rx 8  F0 EB FF 09 EC FF A8 01 
    789      1684.959 DT     0213 Rx 8  00 00 00 00 14 0A DC 05 
    790      1685.270 DT     0113 Rx 8  F4 FD FF 0A 00 00 48 00 
    791      1700.726 DT     0213 Rx 8  00 00 00 00 14 0A DC 05 
    792      1701.015 DT     0113 Rx 8  3F FE FF 0A 00 00 3C 00 
    793      1704.608 DT     0251 Rx 0  
    794      1704.802 DT     0151 Rx 6  00 00 00 00 00 00 
    795      1709.113 DT     0252 Rx 0  
    796      1709.313 DT     0152 Rx 6  00 00 00 00 00 00 
    797      1712.765 DT     0252 Rx 0  
    798      1712.989 DT     0152 Rx 6  00 00 00 00 00 00 
    799      1717.099 DT     0211 Rx 8  00 00 00 00 14 0B DC 05 
    800      1717.402 DT     0111 Rx 8  8A FE FF 0B 00 00 6D 00 
    801      1720.682 DT     0211 Rx 8  00 00 00 00 14 0B DC 05 
    802      1720.944 DT     0111 Rx 8  A0 FE FF 0B 01 00 6E 00 
    803      1724.709 DT     0212 Rx 8  00 00 00 00 14 0C DC 05 
    804      1725.010 DT     0112 Rx 8  5B D7 FF 0C EE FF B3 01 
    805      1728.642 DT     0212 Rx 8  00 00 00 00 14 0C DC 05 
    806      1728.948 DT     0112 Rx 8  B2 D5 FF 0C EE FF 9E 01 
    807      1732.859 DT     0213 Rx 8  00 00 00 00 14 0D DC 05 
    808      1733.154 DT     0113 Rx 8  C5 FE FF 0D 00 00 2F 00 
    809      1736.655 DT     0213 Rx 8  00 00 00 00 14 0D DC 05 
    810      1736.958 DT     0113 Rx 8  D5 FE FF 0D 00 00 28 00 
    811      1740.609 DT     0251 Rx 0  
    812      1740.821 DT     0151 Rx 6  00 00 00 00 00 00 
    813      1744.690 DT     0252 Rx 0  
    814      1744.887 DT     0152 Rx 6  00 00 00 00 00 00 
    815      1750.061 DT     0211 Rx 8  00 00 00 00 14 0E DC 05 
    816      1750.336 DT     0111 Rx 8  69 FF FF 0E 01 00 17 00 
    817      1753.554 DT     0211 Rx 8  00 00 00 00 14 0E DC 05 
    818      1753.869 DT     0111 Rx 8  7F FF FF 0E 01 00 24 00 
    819      1757.853 DT     0212 Rx 8  00 00 00 00 14 0F DC 05 
    820      1758.157 DT     0112 Rx 8  38 CB FF 0F F2 FF DE 01 
    821      1761.460 DT     0212 Rx 8  00 00 00 00 14 0F DC 05 
    822      1761.739 DT     0112 Rx 8  65 CA FF 0F F3 FF CB 01 
    823      1765.550 DT     0213 Rx 8  00 00 00 00 14 00 DC 05 
    824      1765.829 DT     0113 Rx 8  3E FF FF 00 00 00 18 00 
    825      1768.764 DT     0213 Rx 8  00 00 00 00 14 00 DC 05 
    826      1769.091 DT     0113 Rx 8  6B FF FF 00 01 00 15 00 
    827      1772.786 DT     0251 Rx 0  
    828      1772.980 DT     0151 Rx 6  00 00 00 00 00 00 
    829      1776.724 DT     0251 Rx 0  
    830      1776.925 DT     0151 Rx 6  00 00 00 00 00 00 
    831      1780.884 DT     0252 Rx 0  
    832      1781.080 DT     0152 Rx 6  00 00 00 00 00 00 
    833      1784.694 DT     0211 Rx 8  00 00 00 00 14 01 DC 05 
    834      1785.010 DT     0111 Rx 8  2B 00 00 01 00 00 D1 FF 
    835      1789.508 DT     0211 Rx 8  00 00 00 00 14 01 DC 05 
    836      1789.813 DT     0111 Rx 8  41 00 00 01 00 00 C4 FF 
    837      1793.532 DT     0212 Rx 8  00 00 00 00 14 02 DC 05 
    838      1793.830 DT     0112 Rx 8  65 C4 FF 02 F9 FF 1E 02 
    839      1797.512 DT     0212 Rx 8  00 00 00 00 14 02 DC 05 
    840      1797.813 DT     0112 Rx 8  04 C4 FF 02 FA FF FB 01 
    841      1801.593 DT     0213 Rx 8  00 00 00 00 14 03 DC 05 
    842      1801.901 DT     0113 Rx 8  C5 FF FF 03 00 00 07 00 
    843      1805.428 DT     0213 Rx 8  00 00 00 00 14 03 DC 05 
    844      1805.733 DT     0113 Rx 8  E3 FF FF 03 00 00 03 00 
    845      1809.593 DT     0251 Rx 0  
    846      1809.789 DT     0151 Rx 6  00 00 00 00 00 00 
    847      1813.722 DT     0251 Rx 0  
    848      1813.902 DT     0151 Rx 6  00 00 00 00 00 00 
    849      1817.796 DT     0252 Rx 0  
    850      1818.037 DT     0152 Rx 6  00 00 00 00 00 00 
    851      1821.332 DT     0252 Rx 0  
    852      1821.531 DT     0152 Rx 6  00 00 00 00 00 00 
    853      1825.526 DT     0211 Rx 8  00 00 00 00 14 04 DC 05 
    854      1825.842 DT     0111 Rx 8  B6 00 00 04 00 00 99 FF 
    855      1829.385 DT     0211 Rx 8  00 00 00 00 14 04 DC 05 
    856      1829.692 DT     0111 Rx 8  C6 00 00 04 00 00 A7 FF 
    857      1833.743 DT     0212 Rx 8  00 00 00 00 14 05 DC 05 
    858      1834.044 DT     0112 Rx 8  53 C3 FF 05 00 00 1F 02 
    859      1838.508 DT     0212 Rx 8  00 00 00 00 14 05 DC 05 
    860      1838.783 DT     0112 Rx 8  66 C3 FF 05 00 00 1C 02 
    861      1841.438 DT     0213 Rx 8  00 00 00 00 14 06 DC 05 
    862      1841.757 DT     0113 Rx 8  4A 00 00 06 00 00 FC FF 
    863      1845.365 DT     0213 Rx 8  00 00 00 00 14 06 DC 05 
    864      1845.674 DT     0113 Rx 8  68 00 00 06 00 00 EE FF 
    865      1849.827 DT     0251 Rx 0  
    866      1849.998 DT     0151 Rx 6  00 00 00 00 00 00 
    867      1853.371 DT     0251 Rx 0  
    868      1853.561 DT     0151 Rx 6  00 00 00 00 00 00 
    869      1857.557 DT     0252 Rx 0  
    870      1857.729 DT     0152 Rx 6  00 00 00 00 00 00 
    871      1874.044 DT     0252 Rx 0  
    872      1874.252 DT     0152 Rx 6  00 00 00 00 00 00 
    873      1877.142 DT     0211 Rx 8  00 00 00 00 14 07 DC 05 
    874      1877.419 DT     0111 Rx 8  C6 02 00 07 02 00 88 FE 
    875      1881.292 DT     0212 Rx 8  00 00 00 00 14 08 DC 05 
    876      1881.608 DT     0112 Rx 8  F3 C5 FF 08 03 00 25 01 
    877      1885.282 DT     0212 Rx 8  00 00 00 00 14 08 DC 05 
    878      1885.555 DT     0112 Rx 8  4E C6 FF 08 03 00 12 01 
    879      1889.275 DT     0213 Rx 8  00 00 00 00 14 09 DC 05 
    880      1889.564 DT     0113 Rx 8  94 01 00 09 01 00 BC FF 
    881      1893.411 DT     0213 Rx 8  00 00 00 00 14 09 DC 05 
    882      1893.688 DT     0113 Rx 8  94 01 00 09 00 00 C1 FF 
    883      1897.490 DT     0251 Rx 0  
    884      1897.688 DT     0151 Rx 6  00 00 00 00 00 00 
    885      1901.404 DT     0251 Rx 0  
    886      1901.598 DT     0151 Rx 6  00 00 00 00 00 00 
    887      1905.376 DT     0252 Rx 0  
    888      1905.575 DT     0152 Rx 6  00 00 00 00 00 00 
    889      1909.181 DT     0252 Rx 0  
    890      1909.349 DT     0152 Rx 6  00 00 00 00 00 00 
    891      1913.195 DT     0211 Rx 8  00 00 00 00 14 0A DC 05 
    892      1913.470 DT     0111 Rx 8  22 06 00 0A 04 00 80 FE 
    893      1917.160 DT     0211 Rx 8  00 00 00 00 14 0A DC 05 
    894      1917.438 DT     0111 Rx 8  8B 06 00 0A 04 00 70 FE 
    895      1921.211 DT     0212 Rx 8  00 00 00 00 14 0B DC 05 
    896      1921.494 DT     0112 Rx 8  50 CA FF 0B 05 00 98 00 
    897      1925.333 DT     0212 Rx 8  00 00 00 00 14 0B DC 05 
    898      1925.609 DT     0112 Rx 8  E8 CA FF 0B 05 00 78 00 
    899      1929.404 DT     0213 Rx 8  00 00 00 00 14 0C DC 05 
    900      1929.708 DT     0113 Rx 8  D0 01 00 0C 00 00 BC FF 
    901      1933.408 DT     0213 Rx 8  00 00 00 00 14 0C DC 05 
    902      1933.716 DT     0113 Rx 8  DF 01 00 0C 00 00 B3 FF 
    903      1937.136 DT     0251 Rx 0  
    904      1937.302 DT     0151 Rx 6  00 00 00 00 00 00 
    905      1941.283 DT     0251 Rx 0  
    906      1941.464 DT     0151 Rx 6  00 00 00 00 00 00 
    907      1945.249 DT     0252 Rx 0  
    908      1945.417 DT     0152 Rx 6  00 00 00 00 00 00 
    909      1949.564 DT     0252 Rx 0  
    910      1949.735 DT     0152 Rx 6  00 00 00 00 00 00 
    911      1953.305 DT     0211 Rx 8  00 00 00 00 14 0D DC 05 
    912      1953.606 DT     0111 Rx 8  E9 09 00 0D 03 00 8B FE 
    913      1957.215 DT     0211 Rx 8  00 00 00 00 14 0D DC 05 
    914      1957.493 DT     0111 Rx 8  3C 0A 00 0D 03 00 8A FE 
    915      1961.320 DT     0212 Rx 8  00 00 00 00 14 0E DC 05 
    916      1961.593 DT     0112 Rx 8  F8 D1 FF 0E 09 00 A4 FF 
    917      1965.204 DT     0212 Rx 8  00 00 00 00 14 0E DC 05 
    918      1965.543 DT     0112 Rx 8  E9 D2 FF 0E 09 00 83 FF 
    919      1969.302 DT     0213 Rx 8  00 00 00 00 14 0F DC 05 
    920      1969.580 DT     0113 Rx 8  3A 02 00 0F 00 00 AB FF 
    921      1973.180 DT     0213 Rx 8  00 00 00 00 14 0F DC 05 
    922      1973.467 DT     0113 Rx 8  3A 02 00 0F 00 00 A8 FF 
    923      1977.329 DT     0251 Rx 0  
    924      1977.522 DT     0151 Rx 6  00 00 00 00 00 00 
    925      1980.985 DT     0251 Rx 0  
    926      1981.151 DT     0151 Rx 6  00 00 00 00 00 00 
    927      1985.267 DT     0252 Rx 0  
    928      1985.444 DT     0152 Rx 6  00 00 00 00 00 00 
    929      1989.068 DT     0252 Rx 0  
    930      1989.242 DT     0152 Rx 6  00 00 00 00 00 00 
    931      1993.135 DT     0211 Rx 8  00 00 00 00 14 00 DC 05 
    932      1993.443 DT     0111 Rx 8  AE 0C 00 00 02 00 86 FE 
    933      1996.898 DT     0211 Rx 8  00 00 00 00 14 00 DC 05 
    934      1997.172 DT     0111 Rx 8  E5 0C 00 00 02 00 6C FE 
    935      2001.011 DT     0212 Rx 8  00 00 00 00 14 01 DC 05 
    936      2001.292 DT     0112 Rx 8  EA DB FF 01 0B 00 12 FF 
    937      2004.871 DT     0212 Rx 8  00 00 00 00 14 01 DC 05 
    938      2005.137 DT     0112 Rx 8  02 DD FF 01 0B 00 01 FF 
    939      2009.257 DT     0213 Rx 8  00 00 00 00 14 02 DC 05 
    940      2009.534 DT     0113 Rx 8  3A 02 00 02 00 00 AF FF 
    941      2012.834 DT     0213 Rx 8  00 00 00 00 14 02 DC 05 
    942      2013.151 DT     0113 Rx 8  3A 02 00 02 00 00 AB FF 
    943      2016.989 DT     0251 Rx 0  
    944      2017.155 DT     0151 Rx 6  00 00 00 00 00 00 
    945      2020.869 DT     0251 Rx 0  
    946      2021.035 DT     0151 Rx 6  00 00 00 00 00 00 
    947      2025.233 DT     0252 Rx 0  
    948      2025.401 DT     0152 Rx 6  00 00 00 00 00 00 
    949      2029.067 DT     0252 Rx 0  
    950      2029.249 DT     0152 Rx 6  00 00 00 00 00 00 
    951      2033.093 DT     0211 Rx 8  00 00 00 00 14 03 DC 05 
    952      2033.399 DT     0111 Rx 8  A0 0E 00 03 02 00 75 FE 
    953      2037.043 DT     0211 Rx 8  00 00 00 00 14 03 DC 05 
    954      2037.349 DT     0111 Rx 8  CB 0E 00 03 01 00 84 FE 
    955      2041.106 DT     0212 Rx 8  00 00 00 00 14 04 DC 05 
    956      2041.411 DT     0112 Rx 8  CC E7 FF 04 0D 00 A0 FE 
    957      2044.905 DT     0212 Rx 8  00 00 00 00 14 04 DC 05 
    958      2045.213 DT     0112 Rx 8  20 E9 FF 04 0D 00 9A FE 
    959      2049.251 DT     0213 Rx 8  00 00 00 00 14 05 DC 05 
    960      2049.561 DT     0113 Rx 8  57 02 00 05 00 00 A3 FF 
    961      2053.131 DT     0213 Rx 8  00 00 00 00 14 05 DC 05 
    962      2053.453 DT     0113 Rx 8  66 02 00 05 00 00 A5 FF 
    963      2057.180 DT     0251 Rx 0  
    964      2057.385 DT     0151 Rx 6  00 00 00 00 00 00 
    965      2061.276 DT     0251 Rx 0  
    966      2061.481 DT     0151 Rx 6  00 00 00 00 00 00 
    967      2065.328 DT     0252 Rx 0  
    968      2065.496 DT     0152 Rx 6  00 00 00 00 00 00 
    969      2068.690 DT     0252 Rx 0  
    970      2068.871 DT     0152 Rx 6  00 00 00 00 00 00 
    971      2072.772 DT     0211 Rx 8  00 00 00 00 14 06 DC 05 
    972      2073.077 DT     0111 Rx 8  18 10 00 06 01 00 76 FE 
    973      2077.130 DT     0211 Rx 8  00 00 00 00 14 06 DC 05 
    974      2077.449 DT     0111 Rx 8  39 10 00 06 01 00 69 FE 
    975      2080.737 DT     0212 Rx 8  00 00 00 00 14 07 DC 05 
    976      2081.062 DT     0112 Rx 8  CC F5 FF 07 10 00 7C FE 
    977      2084.698 DT     0212 Rx 8  00 00 00 00 14 07 DC 05 
    978      2084.995 DT     0112 Rx 8  67 F7 FF 07 10 00 58 FE 
    979      2088.987 DT     0213 Rx 8  00 00 00 00 14 08 DC 05 
    980      2089.295 DT     0113 Rx 8  93 02 00 08 00 00 96 FF 
    981      2093.278 DT     0251 Rx 0  
    982      2093.499 DT     0151 Rx 6  00 00 00 00 00 00 
    983      2097.017 DT     0251 Rx 0  
    984      2097.227 DT     0151 Rx 6  00 00 00 00 00 00 
    985      2101.541 DT     0252 Rx 0  
    986      2101.751 DT     0152 Rx 6  00 00 00 00 00 00 
    987      2105.005 DT     0252 Rx 0  
    988      2105.220 DT     0152 Rx 6  00 00 00 00 00 00 
    989      2109.133 DT     0211 Rx 8  00 00 00 00 14 09 DC 05 
    990      2109.452 DT     0111 Rx 8  8A 10 00 09 00 00 86 FE 
    991      2112.851 DT     0211 Rx 8  00 00 00 00 14 09 DC 05 
    992      2113.136 DT     0111 Rx 8  8A 10 00 09 00 00 5B FE 
    993      2117.386 DT     0212 Rx 8  00 00 00 00 14 0A DC 05 
    994      2117.701 DT     0112 Rx 8  C6 05 00 0A 12 00 6D FE 
    995      2120.952 DT     0212 Rx 8  00 00 00 00 14 0A DC 05 
    996      2121.227 DT     0112 Rx 8  8F 07 00 0A 12 00 54 FE 
    997      2125.707 DT     0213 Rx 8  00 00 00 00 14 0B DC 05 
    998      2126.015 DT     0113 Rx 8  93 02 00 0B 00 00 9F FF 
    999      2129.526 DT     0213 Rx 8  00 00 00 00 14 0B DC 05 
   1000      2129.826 DT     0113 Rx 8  93 02 00 0B 00 00 9D FF 
   1001      2133.663 DT     0251 Rx 0  
   1002      2133.843 DT     0151 Rx 6  00 00 00 00 00 00 
   1003      2137.725 DT     0251 Rx 0  
   1004      2137.901 DT     0151 Rx 6  00 00 00 00 00 00 
   1005      2141.739 DT     0252 Rx 0  
   1006      2141.939 DT     0152 Rx 6  00 00 00 00 00 00 
   1007      2144.494 DT     0252 Rx 0  
   1008      2144.662 DT     0152 Rx 6  00 00 00 00 00 00 
   1009      2148.565 DT     0211 Rx 8  00 00 00 00 14 0C DC 05 
   1010      2148.839 DT     0111 Rx 8  4E 10 00 0C 00 00 85 FE 
   1011      2152.728 DT     0212 Rx 8  00 00 00 00 14 0D DC 05 
   1012      2153.032 DT     0112 Rx 8  92 16 00 0D 13 00 52 FE 
   1013      2157.640 DT     0213 Rx 8  00 00 00 00 14 0E DC 05 
   1014      2157.957 DT     0113 Rx 8  2A 02 00 0E 00 00 B7 FF 
   1015      2161.506 DT     0213 Rx 8  00 00 00 00 14 0E DC 05 
   1016      2161.807 DT     0113 Rx 8  1B 02 00 0E 00 00 B7 FF 
   1017      2165.504 DT     0251 Rx 0  
   1018      2165.697 DT     0151 Rx 6  00 00 00 00 00 00 
   1019      2169.543 DT     0251 Rx 0  
   1020      2169.731 DT     0151 Rx 6  00 00 00 00 00 00 
   1021      2173.497 DT     0252 Rx 0  
   1022      2173.687 DT     0152 Rx 6  00 00 00 00 00 00 
   1023      2176.688 DT     0252 Rx 0  
   1024      2176.887 DT     0152 Rx 6  00 00 00 00 00 00 
   1025      2180.732 DT     0211 Rx 8  00 00 00 00 14 0F DC 05 
   1026      2181.020 DT     0111 Rx 8  7F 0F 00 0F FF FF 9F FE 
   1027      2185.910 DT     0211 Rx 8  00 00 00 00 14 0F DC 05 
   1028      2186.223 DT     0111 Rx 8  4E 0F 00 0F FF FF B0 FE 
   1029      2200.600 DT     0212 Rx 8  00 00 00 00 14 00 DC 05 
   1030      2200.903 DT     0112 Rx 8  65 29 00 00 0E 00 37 FE 
   1031      2202.013 DT     0212 Rx 8  00 00 00 00 14 00 DC 05 
   1032      2202.293 DT     0112 Rx 8  F8 29 00 00 0D 00 22 FE 
   1033      2205.422 DT     0213 Rx 8  00 00 00 00 14 01 DC 05 
   1034      2205.700 DT     0113 Rx 8  A3 01 00 01 00 00 C3 FF 
   1035      2209.578 DT     0213 Rx 8  00 00 00 00 14 01 DC 05 
   1036      2209.886 DT     0113 Rx 8  85 01 00 01 00 00 D2 FF 
   1037      2213.644 DT     0251 Rx 0  
   1038      2213.862 DT     0151 Rx 6  00 00 00 00 00 00 
   1039      2217.707 DT     0251 Rx 0  
   1040      2217.874 DT     0151 Rx 6  00 00 00 00 00 00 
   1041      2234.945 DT     0252 Rx 0  
   1042      2235.126 DT     0152 Rx 6  00 00 00 00 00 00 
   1043      2237.562 DT     0211 Rx 8  00 00 00 00 14 02 DC 05 
   1044      2237.839 DT     0111 Rx 8  74 0E 00 02 00 00 82 FE 
   1045      2241.340 DT     0211 Rx 8  00 00 00 00 14 02 DC 05 
   1046      2241.616 DT     0111 Rx 8  74 0E 00 02 00 00 92 FE 
   1047      2245.648 DT     0212 Rx 8  00 00 00 00 14 03 DC 05 
   1048      2245.945 DT     0112 Rx 8  9F 30 00 03 04 00 ED FD 
   1049      2264.215 DT     0212 Rx 8  00 00 00 00 14 03 DC 05 
   1050      2264.503 DT     0112 Rx 8  3F 30 00 03 00 00 F4 FD 
   1051      2265.181 DT     0213 Rx 8  00 00 00 00 14 04 DC 05 
   1052      2265.465 DT     0113 Rx 8  1B 02 00 04 00 00 AB FF 
   1053      2269.540 DT     0251 Rx 0  
   1054      2269.709 DT     0151 Rx 6  00 00 00 00 00 00 
   1055      2273.355 DT     0251 Rx 0  
   1056      2273.521 DT     0151 Rx 6  00 00 00 00 00 00 
   1057      2277.367 DT     0252 Rx 0  
   1058      2277.535 DT     0152 Rx 6  00 00 00 00 00 00 
   1059      2281.173 DT     0252 Rx 0  
   1060      2281.341 DT     0152 Rx 6  00 00 00 00 00 00 
   1061      2285.266 DT     0211 Rx 8  00 00 00 00 14 05 DC 05 
   1062      2285.539 DT     0111 Rx 8  BB 10 00 05 02 00 88 FE 
   1063      2289.126 DT     0211 Rx 8  00 00 00 00 14 05 DC 05 
   1064      2289.413 DT     0111 Rx 8  0D 11 00 05 03 00 77 FE 
   1065      2293.211 DT     0212 Rx 8  00 00 00 00 14 06 DC 05 
   1066      2293.522 DT     0112 Rx 8  77 2E 00 06 FE FF 81 FE 
   1067      2297.259 DT     0212 Rx 8  00 00 00 00 14 06 DC 05 
   1068      2297.543 DT     0112 Rx 8  3F 2E 00 06 FE FF 88 FE 
   1069      2301.217 DT     0213 Rx 8  00 00 00 00 14 07 DC 05 
   1070      2301.508 DT     0113 Rx 8  93 02 00 07 00 00 9B FF 
   1071      2305.164 DT     0213 Rx 8  00 00 00 00 14 07 DC 05 
   1072      2305.432 DT     0113 Rx 8  93 02 00 07 00 00 9D FF 
   1073      2309.318 DT     0251 Rx 0  
   1074      2309.484 DT     0151 Rx 6  00 00 00 00 00 00 
   1075      2313.033 DT     0251 Rx 0  
   1076      2313.199 DT     0151 Rx 6  00 00 00 00 00 00 
   1077      2317.515 DT     0252 Rx 0  
   1078      2317.683 DT     0152 Rx 6  00 00 00 00 00 00 
   1079      2321.040 DT     0252 Rx 0  
   1080      2321.208 DT     0152 Rx 6  00 00 00 00 00 00 
   1081      2325.068 DT     0211 Rx 8  00 00 00 00 14 08 DC 05 
   1082      2325.381 DT     0111 Rx 8  5F 15 00 08 05 00 75 FE 
   1083      2329.117 DT     0211 Rx 8  00 00 00 00 14 08 DC 05 
   1084      2329.434 DT     0111 Rx 8  0A 16 00 08 05 00 5F FE 
   1085      2333.586 DT     0212 Rx 8  00 00 00 00 14 09 DC 05 
   1086      2333.939 DT     0112 Rx 8  56 2B 00 09 FD FF FD FE 
   1087      2337.289 DT     0212 Rx 8  00 00 00 00 14 09 DC 05 
   1088      2337.601 DT     0112 Rx 8  E8 2A 00 09 FC FF 12 FF 
   1089      2341.402 DT     0213 Rx 8  00 00 00 00 14 0A DC 05 
   1090      2341.706 DT     0113 Rx 8  A2 02 00 0A 00 00 96 FF 
   1091      2345.254 DT     0213 Rx 8  00 00 00 00 14 0A DC 05 
   1092      2345.545 DT     0113 Rx 8  A2 02 00 0A 00 00 A0 FF 
   1093      2349.182 DT     0251 Rx 0  
   1094      2349.382 DT     0151 Rx 6  00 00 00 00 00 00 
   1095      2353.183 DT     0251 Rx 0  
   1096      2353.349 DT     0151 Rx 6  00 00 00 00 00 00 
   1097      2357.410 DT     0252 Rx 0  
   1098      2357.590 DT     0152 Rx 6  00 00 00 00 00 00 
   1099      2360.921 DT     0252 Rx 0  
   1100      2361.111 DT     0152 Rx 6  00 00 00 00 00 00 
   1101      2365.060 DT     0211 Rx 8  00 00 00 00 14 0B DC 05 
   1102      2365.361 DT     0111 Rx 8  2E 1D 00 0B 08 00 74 FE 
   1103      2369.057 DT     0211 Rx 8  00 00 00 00 14 0B DC 05 
   1104      2369.341 DT     0111 Rx 8  18 1E 00 0B 08 00 69 FE 
   1105      2373.284 DT     0212 Rx 8  00 00 00 00 14 0C DC 05 
   1106      2373.600 DT     0112 Rx 8  9F 26 00 0C FB FF 59 FF 
   1107      2388.439 DT     0212 Rx 8  00 00 00 00 14 0C DC 05 
   1108      2388.812 DT     0213 Rx 8  00 00 00 00 14 0D DC 05 
   1109      2388.717 DT     0112 Rx 8  CA 24 00 0C FB FF 91 FF 
   1110      2389.088 DT     0113 Rx 8  A2 02 00 0D 00 00 9B FF 
   1111      2392.861 DT     0213 Rx 8  00 00 00 00 14 0D DC 05 
   1112      2393.160 DT     0113 Rx 8  A2 02 00 0D 00 00 A5 FF 
   1113      2397.154 DT     0251 Rx 0  
   1114      2397.352 DT     0151 Rx 6  00 00 00 00 00 00 
   1115      2401.040 DT     0251 Rx 0  
   1116      2401.235 DT     0151 Rx 6  00 00 00 00 00 00 
   1117      2405.047 DT     0252 Rx 0  
   1118      2405.257 DT     0152 Rx 6  00 00 00 00 00 00 
   1119      2408.824 DT     0252 Rx 0  
   1120      2409.021 DT     0152 Rx 6  00 00 00 00 00 00 
   1121      2412.836 DT     0211 Rx 8  00 00 00 00 14 0E DC 05 
   1122      2413.108 DT     0111 Rx 8  BD 29 00 0E 0B 00 48 FE 
   1123      2417.005 DT     0211 Rx 8  00 00 00 00 14 0E DC 05 
   1124      2417.279 DT     0111 Rx 8  D5 2A 00 0E 0B 00 46 FE 
   1125      2420.889 DT     0212 Rx 8  00 00 00 00 14 0F DC 05 
   1126      2421.187 DT     0112 Rx 8  7E 20 00 0F FB FF 9D FF 
   1127      2424.744 DT     0212 Rx 8  00 00 00 00 14 0F DC 05 
   1128      2425.019 DT     0112 Rx 8  EF 1F 00 0F FB FF 99 FF 
   1129      2428.786 DT     0213 Rx 8  00 00 00 00 14 00 DC 05 
   1130      2429.070 DT     0113 Rx 8  84 02 00 00 00 00 A9 FF 
   1131      2432.879 DT     0213 Rx 8  00 00 00 00 14 00 DC 05 
   1132      2433.172 DT     0113 Rx 8  84 02 00 00 00 00 9B FF 
   1133      2436.775 DT     0251 Rx 0  
   1134      2436.963 DT     0151 Rx 6  00 00 00 00 00 00 
   1135      2440.706 DT     0251 Rx 0  
   1136      2440.884 DT     0151 Rx 6  00 00 00 00 00 00 
   1137      2444.841 DT     0252 Rx 0  
   1138      2445.050 DT     0152 Rx 6  00 00 00 00 00 00 
   1139      2448.667 DT     0252 Rx 0  
   1140      2448.835 DT     0152 Rx 6  00 00 00 00 00 00 
   1141      2452.907 DT     0211 Rx 8  00 00 00 00 14 01 DC 05 
   1142      2453.221 DT     0111 Rx 8  D8 34 00 01 0B 00 30 FE 
   1143      2456.851 DT     0211 Rx 8  00 00 00 00 14 01 DC 05 
   1144      2457.165 DT     0111 Rx 8  F4 35 00 01 0B 00 3A FE 
   1145      2460.898 DT     0212 Rx 8  00 00 00 00 14 02 DC 05 
   1146      2461.201 DT     0112 Rx 8  E7 1A 00 02 FB FF 9F FF 
   1147      2464.785 DT     0212 Rx 8  00 00 00 00 14 02 DC 05 
   1148      2465.097 DT     0112 Rx 8  4A 1A 00 02 FA FF D4 FF 
   1149      2468.904 DT     0213 Rx 8  00 00 00 00 14 03 DC 05 
   1150      2469.233 DT     0113 Rx 8  76 02 00 03 00 00 A5 FF 
   1151      2472.680 DT     0213 Rx 8  00 00 00 00 14 03 DC 05 
   1152      2472.988 DT     0113 Rx 8  66 02 00 03 00 00 A7 FF 
   1153      2476.679 DT     0251 Rx 0  
   1154      2476.880 DT     0151 Rx 6  00 00 00 00 00 00 
   1155      2480.604 DT     0251 Rx 0  
   1156      2480.771 DT     0151 Rx 6  00 00 00 00 00 00 
   1157      2484.798 DT     0252 Rx 0  
   1158      2484.994 DT     0152 Rx 6  00 00 00 00 00 00 
   1159      2488.578 DT     0252 Rx 0  
   1160      2488.781 DT     0152 Rx 6  00 00 00 00 00 00 
   1161      2492.569 DT     0211 Rx 8  00 00 00 00 14 04 DC 05 
   1162      2492.879 DT     0111 Rx 8  B0 3E 00 04 09 00 DF FD 
   1163      2496.790 DT     0211 Rx 8  00 00 00 00 14 04 DC 05 
   1164      2497.094 DT     0111 Rx 8  BD 3F 00 04 09 00 E5 FD 
   1165      2501.708 DT     0212 Rx 8  00 00 00 00 14 05 DC 05 
   1166      2502.017 DT     0112 Rx 8  9D 14 00 05 FA FF E8 FF 
   1167      2505.463 DT     0212 Rx 8  00 00 00 00 14 05 DC 05 
   1168      2505.761 DT     0112 Rx 8  20 14 00 05 FA FF D7 FF 
   1169      2509.563 DT     0213 Rx 8  00 00 00 00 14 06 DC 05 
   1170      2509.872 DT     0113 Rx 8  48 02 00 06 00 00 AC FF 
   1171      2513.532 DT     0213 Rx 8  00 00 00 00 14 06 DC 05 
   1172      2513.838 DT     0113 Rx 8  48 02 00 06 00 00 A0 FF 
   1173      2517.689 DT     0251 Rx 0  
   1174      2517.883 DT     0151 Rx 6  00 00 00 00 00 00 
   1175      2521.714 DT     0251 Rx 0  
   1176      2521.921 DT     0151 Rx 6  00 00 00 00 00 00 
   1177      2524.698 DT     0252 Rx 0  
   1178      2524.866 DT     0152 Rx 6  00 00 00 00 00 00 
   1179      2528.712 DT     0211 Rx 8  00 00 00 00 14 07 DC 05 
   1180      2529.019 DT     0111 Rx 8  40 45 00 07 07 00 B3 FD 
   1181      2533.668 DT     0211 Rx 8  00 00 00 00 14 07 DC 05 
   1182      2533.984 DT     0111 Rx 8  F1 45 00 07 06 00 9C FD 
   1183      2537.566 DT     0212 Rx 8  00 00 00 00 14 08 DC 05 
   1184      2537.869 DT     0112 Rx 8  B5 0E 00 08 F9 FF D7 FF 
   1185      2541.472 DT     0212 Rx 8  00 00 00 00 14 08 DC 05 
   1186      2541.763 DT     0112 Rx 8  07 0E 00 08 F9 FF F9 FF 
   1187      2545.498 DT     0213 Rx 8  00 00 00 00 14 09 DC 05 
   1188      2545.801 DT     0113 Rx 8  57 02 00 09 00 00 A3 FF 
   1189      2549.540 DT     0213 Rx 8  00 00 00 00 14 09 DC 05 
   1190      2549.857 DT     0113 Rx 8  76 02 00 09 00 00 A3 FF 
   1191      2552.748 DT     0251 Rx 0  
   1192      2552.942 DT     0151 Rx 6  00 00 00 00 00 00 
   1193      2556.625 DT     0251 Rx 0  
   1194      2556.791 DT     0151 Rx 6  00 00 00 00 00 00 
   1195      2561.527 DT     0252 Rx 0  
   1196      2561.695 DT     0152 Rx 6  00 00 00 00 00 00 
   1197      2565.419 DT     0211 Rx 8  00 00 00 00 14 0A DC 05 
   1198      2565.699 DT     0111 Rx 8  30 49 00 0A 04 00 70 FD 
   1199      2569.424 DT     0211 Rx 8  00 00 00 00 14 0A DC 05 
   1200      2569.717 DT     0111 Rx 8  67 49 00 0A 03 00 55 FD 
   1201      2573.375 DT     0212 Rx 8  00 00 00 00 14 0B DC 05 
   1202      2573.680 DT     0112 Rx 8  67 09 00 0B FA FF D2 FF 
   1203      2577.391 DT     0212 Rx 8  00 00 00 00 14 0B DC 05 
   1204      2577.694 DT     0112 Rx 8  B1 08 00 0B FA FF D3 FF 
   1205      2581.674 DT     0213 Rx 8  00 00 00 00 14 0C DC 05 
   1206      2581.954 DT     0113 Rx 8  C0 02 00 0C 00 00 8D FF 
   1207      2585.552 DT     0213 Rx 8  00 00 00 00 14 0C DC 05 
   1208      2585.862 DT     0113 Rx 8  DE 02 00 0C 00 00 8F FF 
   1209      2589.639 DT     0251 Rx 0  
   1210      2589.847 DT     0151 Rx 6  00 00 00 00 00 00 
   1211      2593.543 DT     0251 Rx 0  
   1212      2593.755 DT     0151 Rx 6  00 00 00 00 00 00 
   1213      2597.709 DT     0252 Rx 0  
   1214      2597.898 DT     0152 Rx 6  00 00 00 00 00 00 
   1215      2601.423 DT     0252 Rx 0  
   1216      2601.619 DT     0152 Rx 6  00 00 00 00 00 00 
   1217      2605.396 DT     0211 Rx 8  00 00 00 00 14 0D DC 05 
   1218      2605.713 DT     0111 Rx 8  E0 49 00 0D 00 00 5D FD 
   1219      2609.298 DT     0211 Rx 8  00 00 00 00 14 0D DC 05 
   1220      2609.619 DT     0111 Rx 8  DD 49 00 0D 00 00 49 FD 
   1221      2613.365 DT     0212 Rx 8  00 00 00 00 14 0E DC 05 
   1222      2613.668 DT     0112 Rx 8  D3 02 00 0E FA FF F5 FF 
   1223      2617.272 DT     0212 Rx 8  00 00 00 00 14 0E DC 05 
   1224      2617.584 DT     0112 Rx 8  5B 02 00 0E FB FF 13 00 
   1225      2621.266 DT     0213 Rx 8  00 00 00 00 14 0F DC 05 
   1226      2621.572 DT     0113 Rx 8  48 02 00 0F 00 00 B1 FF 
   1227      2625.193 DT     0213 Rx 8  00 00 00 00 14 0F DC 05 
   1228      2625.472 DT     0113 Rx 8  1B 02 00 0F FF FF B9 FF 
   1229      2629.465 DT     0251 Rx 0  
   1230      2629.653 DT     0151 Rx 6  00 00 00 00 00 00 
   1231      2633.247 DT     0251 Rx 0  
   1232      2633.410 DT     0151 Rx 6  00 00 00 00 00 00 
   1233      2637.258 DT     0252 Rx 0  
   1234      2637.447 DT     0152 Rx 6  00 00 00 00 00 00 
   1235      2641.242 DT     0252 Rx 0  
   1236      2641.410 DT     0152 Rx 6  00 00 00 00 00 00 
   1237      2645.475 DT     0211 Rx 8  00 00 00 00 14 00 DC 05 
   1238      2645.782 DT     0111 Rx 8  0B 48 00 00 FE FF 8F FE 
   1239      2649.341 DT     0211 Rx 8  00 00 00 00 14 00 DC 05 
   1240      2649.629 DT     0111 Rx 8  AF 47 00 00 FD FF 8F FE 
   1241      2653.470 DT     0212 Rx 8  00 00 00 00 14 01 DC 05 
   1242      2653.781 DT     0112 Rx 8  6B 00 00 01 FF FF 23 00 
   1243      2657.301 DT     0212 Rx 8  00 00 00 00 14 01 DC 05 
   1244      2657.602 DT     0112 Rx 8  56 00 00 01 FF FF 23 00 
   1245      2661.264 DT     0213 Rx 8  00 00 00 00 14 02 DC 05 
   1246      2661.565 DT     0113 Rx 8  1D 01 00 02 FF FF E8 FF 
   1247      2665.127 DT     0213 Rx 8  00 00 00 00 14 02 DC 05 
   1248      2665.399 DT     0113 Rx 8  EF 00 00 02 FF FF E2 FF 
   1249      2669.176 DT     0251 Rx 0  
   1250      2669.379 DT     0151 Rx 6  00 00 00 00 00 00 
   1251      2673.071 DT     0251 Rx 0  
   1252      2673.250 DT     0151 Rx 6  00 00 00 00 00 00 
   1253      2677.245 DT     0252 Rx 0  
   1254      2677.433 DT     0152 Rx 6  00 00 00 00 00 00 
   1255      2681.085 DT     0252 Rx 0  
   1256      2681.278 DT     0152 Rx 6  00 00 00 00 00 00 
   1257      2685.233 DT     0211 Rx 8  00 00 00 00 14 03 DC 05 
   1258      2685.536 DT     0111 Rx 8  18 43 00 03 FA FF B5 FF 
   1259      2689.012 DT     0211 Rx 8  00 00 00 00 14 03 DC 05 
   1260      2689.322 DT     0111 Rx 8  64 42 00 03 FA FF A6 FF 
   1261      2693.283 DT     0212 Rx 8  00 00 00 00 14 04 DC 05 
   1262      2693.589 DT     0112 Rx 8  B5 FF FF 04 00 00 21 00 
   1263      2697.018 DT     0212 Rx 8  00 00 00 00 14 04 DC 05 
   1264      2697.345 DT     0112 Rx 8  B0 FF FF 04 00 00 3E 00 
   1265      2701.093 DT     0213 Rx 8  00 00 00 00 14 05 DC 05 
   1266      2701.388 DT     0113 Rx 8  00 00 00 05 FF FF 03 00 
   1267      2705.177 DT     0213 Rx 8  00 00 00 00 14 05 DC 05 
   1268      2705.486 DT     0113 Rx 8  D4 FF FF 05 FF FF 09 00 
   1269      2709.328 DT     0251 Rx 0  
   1270      2709.522 DT     0151 Rx 6  00 00 00 00 00 00 
   1271      2713.049 DT     0251 Rx 0  
   1272      2713.223 DT     0151 Rx 6  00 00 00 00 00 00 
   1273      2717.932 DT     0252 Rx 0  
   1274      2718.127 DT     0152 Rx 6  00 00 00 00 00 00 
   1275      2721.033 DT     0252 Rx 0  
   1276      2721.233 DT     0152 Rx 6  00 00 00 00 00 00 
   1277      2725.022 DT     0211 Rx 8  00 00 00 00 14 06 DC 05 
   1278      2725.323 DT     0111 Rx 8  63 3B 00 06 F7 FF 4B 00 
   1279      2728.946 DT     0211 Rx 8  00 00 00 00 14 06 DC 05 
   1280      2729.221 DT     0111 Rx 8  83 3A 00 06 F7 FF 84 00 
   1281      2733.173 DT     0212 Rx 8  00 00 00 00 14 07 DC 05 
   1282      2733.585 DT     0112 Rx 8  DF FF FF 07 00 00 05 00 
   1283      2736.951 DT     0212 Rx 8  00 00 00 00 14 07 DC 05 
   1284      2737.248 DT     0112 Rx 8  EA FF FF 07 00 00 11 00 
   1285      2741.009 DT     0213 Rx 8  00 00 00 00 14 08 DC 05 
   1286      2741.323 DT     0113 Rx 8  3E FF FF 08 FF FF 22 00 
   1287      2744.876 DT     0213 Rx 8  00 00 00 00 14 08 DC 05 
   1288      2745.181 DT     0113 Rx 8  3E FF FF 08 FF FF 20 00 
   1289      2748.954 DT     0251 Rx 0  
   1290      2749.130 DT     0151 Rx 6  00 00 00 00 00 00 
   1291      2752.855 DT     0251 Rx 0  
   1292      2753.028 DT     0151 Rx 6  00 00 00 00 00 00 
   1293      2757.046 DT     0252 Rx 0  
   1294      2757.248 DT     0152 Rx 6  00 00 00 00 00 00 
   1295      2760.835 DT     0252 Rx 0  
   1296      2761.002 DT     0152 Rx 6  00 00 00 00 00 00 
   1297      2764.894 DT     0211 Rx 8  00 00 00 00 14 09 DC 05 
   1298      2765.175 DT     0111 Rx 8  70 31 00 09 F5 FF 18 01 
   1299      2768.992 DT     0211 Rx 8  00 00 00 00 14 09 DC 05 
   1300      2769.297 DT     0111 Rx 8  54 30 00 09 F5 FF 17 01 
   1301      2773.159 DT     0212 Rx 8  00 00 00 00 14 0A DC 05 
   1302      2773.464 DT     0112 Rx 8  56 00 00 0A 00 00 DB FF 
   1303      2777.027 DT     0212 Rx 8  00 00 00 00 14 0A DC 05 
   1304      2777.356 DT     0112 Rx 8  61 00 00 0A 00 00 C6 FF 
   1305      2781.124 DT     0213 Rx 8  00 00 00 00 14 0B DC 05 
   1306      2781.429 DT     0113 Rx 8  20 FF FF 0B 00 00 22 00 
   1307      2785.029 DT     0213 Rx 8  00 00 00 00 14 0B DC 05 
   1308      2785.350 DT     0113 Rx 8  11 FF FF 0B 00 00 1E 00 
   1309      2789.127 DT     0251 Rx 0  
   1310      2789.311 DT     0151 Rx 6  00 00 00 00 00 00 
   1311      2792.834 DT     0251 Rx 0  
   1312      2793.031 DT     0151 Rx 6  00 00 00 00 00 00 
   1313      2797.009 DT     0252 Rx 0  
   1314      2797.205 DT     0152 Rx 6  00 00 00 00 00 00 
   1315      2800.890 DT     0252 Rx 0  
   1316      2801.095 DT     0152 Rx 6  00 00 00 00 00 00 
   1317      2804.787 DT     0211 Rx 8  00 00 00 00 14 0C DC 05 
   1318      2805.061 DT     0111 Rx 8  73 25 00 0C F3 FF 77 01 
   1319      2808.704 DT     0211 Rx 8  00 00 00 00 14 0C DC 05 
   1320      2808.981 DT     0111 Rx 8  33 24 00 0C F3 FF 63 01 
   1321      2812.755 DT     0212 Rx 8  00 00 00 00 14 0D DC 05 
   1322      2813.064 DT     0112 Rx 8  70 00 00 0D 00 00 D7 FF 
   1323      2816.800 DT     0212 Rx 8  00 00 00 00 14 0D DC 05 
   1324      2817.064 DT     0112 Rx 8  66 00 00 0D 00 00 C9 FF 
   1325      2820.736 DT     0213 Rx 8  00 00 00 00 14 0E DC 05 
   1326      2821.042 DT     0113 Rx 8  C5 FE FF 0E 00 00 25 00 
   1327      2824.645 DT     0213 Rx 8  00 00 00 00 14 0E DC 05 
   1328      2824.972 DT     0113 Rx 8  C5 FE FF 0E 00 00 30 00 
   1329      2828.946 DT     0251 Rx 0  
   1330      2829.147 DT     0151 Rx 6  00 00 00 00 00 00 
   1331      2832.889 DT     0251 Rx 0  
   1332      2833.076 DT     0151 Rx 6  00 00 00 00 00 00 
   1333      2837.370 DT     0252 Rx 0  
   1334      2837.572 DT     0152 Rx 6  00 00 00 00 00 00 
   1335      2840.914 DT     0252 Rx 0  
   1336      2841.102 DT     0152 Rx 6  00 00 00 00 00 00 
   1337      2845.085 DT     0211 Rx 8  00 00 00 00 14 0F DC 05 
   1338      2845.392 DT     0111 Rx 8  84 18 00 0F F2 FF 8F 01 
   1339      2848.975 DT     0211 Rx 8  00 00 00 00 14 0F DC 05 
   1340      2849.285 DT     0111 Rx 8  20 17 00 0F F2 FF 83 01 
   1341      2853.103 DT     0212 Rx 8  00 00 00 00 14 00 DC 05 
   1342      2853.421 DT     0112 Rx 8  80 00 00 00 00 00 BA FF 
   1343      2857.030 DT     0212 Rx 8  00 00 00 00 14 00 DC 05 
   1344      2857.347 DT     0112 Rx 8  80 00 00 00 00 00 D7 FF 
   1345      2871.941 DT     0213 Rx 8  00 00 00 00 14 01 DC 05 
   1346      2872.260 DT     0113 Rx 8  B7 FE FF 01 00 00 33 00 
   1347      2874.149 DT     0213 Rx 8  00 00 00 00 14 01 DC 05 
   1348      2874.425 DT     0113 Rx 8  B7 FE FF 01 00 00 34 00 
   1349      2878.089 DT     0251 Rx 0  
   1350      2878.254 DT     0151 Rx 6  00 00 00 00 00 00 
   1351      2881.751 DT     0251 Rx 0  
   1352      2881.917 DT     0151 Rx 6  00 00 00 00 00 00 
   1353      2885.712 DT     0252 Rx 0  
   1354      2885.924 DT     0152 Rx 6  00 00 00 00 00 00 
   1355      2889.663 DT     0252 Rx 0  
   1356      2889.841 DT     0152 Rx 6  00 00 00 00 00 00 
   1357      2893.603 DT     0211 Rx 8  00 00 00 00 14 02 DC 05 
   1358      2893.878 DT     0111 Rx 8  E6 08 00 02 F3 FF 55 01 
   1359      2896.565 DT     0211 Rx 8  00 00 00 00 14 02 DC 05 
   1360      2896.839 DT     0111 Rx 8  ED 07 00 02 F3 FF 46 01 
   1361      2901.695 DT     0212 Rx 8  00 00 00 00 14 03 DC 05 
   1362      2901.994 DT     0112 Rx 8  8A 00 00 03 00 00 CB FF 
   1363      2905.511 DT     0212 Rx 8  00 00 00 00 14 03 DC 05 
   1364      2905.774 DT     0112 Rx 8  85 00 00 03 00 00 B9 FF 
   1365      2909.550 DT     0213 Rx 8  00 00 00 00 14 04 DC 05 
   1366      2909.856 DT     0113 Rx 8  A7 FE FF 04 00 00 34 00 
   1367      2913.453 DT     0213 Rx 8  00 00 00 00 14 04 DC 05 
   1368      2913.751 DT     0113 Rx 8  A7 FE FF 04 00 00 2C 00 
   1369      2917.553 DT     0251 Rx 0  
   1370      2917.719 DT     0151 Rx 6  00 00 00 00 00 00 
   1371      2921.371 DT     0251 Rx 0  
   1372      2921.537 DT     0151 Rx 6  00 00 00 00 00 00 
   1373      2925.581 DT     0252 Rx 0  
   1374      2925.765 DT     0152 Rx 6  00 00 00 00 00 00 
   1375      2928.634 DT     0252 Rx 0  
   1376      2928.803 DT     0152 Rx 6  00 00 00 00 00 00 
   1377      2933.695 DT     0211 Rx 8  00 00 00 00 14 05 DC 05 
   1378      2933.949 DT     0111 Rx 8  0F FD FF 05 F5 FF 71 01 
   1379      2937.441 DT     0211 Rx 8  00 00 00 00 14 05 DC 05 
   1380      2937.718 DT     0111 Rx 8  52 FC FF 05 F5 FF 84 01 
   1381      2941.598 DT     0212 Rx 8  00 00 00 00 14 06 DC 05 
   1382      2941.895 DT     0112 Rx 8  8A 00 00 06 00 00 CA FF 
   1383      2945.290 DT     0212 Rx 8  00 00 00 00 14 06 DC 05 
   1384      2945.561 DT     0112 Rx 8  8A 00 00 06 00 00 BC FF 
   1385      2950.015 DT     0213 Rx 8  00 00 00 00 14 07 DC 05 
   1386      2950.297 DT     0113 Rx 8  8A FE FF 07 00 00 3A 00 
   1387      2953.430 DT     0213 Rx 8  00 00 00 00 14 07 DC 05 
   1388      2953.706 DT     0113 Rx 8  7B FE FF 07 00 00 3A 00 
   1389      2957.662 DT     0251 Rx 0  
   1390      2957.830 DT     0151 Rx 6  00 00 00 00 00 00 
   1391      2961.625 DT     0251 Rx 0  
   1392      2961.792 DT     0151 Rx 6  00 00 00 00 00 00 
   1393      2965.816 DT     0252 Rx 0  
   1394      2966.023 DT     0152 Rx 6  00 00 00 00 00 00 
   1395      2981.557 DT     0252 Rx 0  
   1396      2981.780 DT     0152 Rx 6  00 00 00 00 00 00 
   1397      2985.497 DT     0211 Rx 8  00 00 00 00 14 08 DC 05 
   1398      2985.771 DT     0111 Rx 8  6E F3 FF 08 FA FF 80 01 
   1399      2989.494 DT     0212 Rx 8  00 00 00 00 14 09 DC 05 
   1400      2989.773 DT     0112 Rx 8  90 00 00 09 00 00 BC FF 
   1401      2993.306 DT     0212 Rx 8  00 00 00 00 14 09 DC 05 
   1402      2993.592 DT     0112 Rx 8  90 00 00 09 00 00 CA FF 
   1403      2997.540 DT     0213 Rx 8  00 00 00 00 14 0A DC 05 
   1404      2997.817 DT     0113 Rx 8  6C FE FF 0A 00 00 37 00 
   1405      3001.506 DT     0213 Rx 8  00 00 00 00 14 0A DC 05 
   1406      3001.809 DT     0113 Rx 8  6C FE FF 0A 00 00 43 00 
   1407      3005.227 DT     0251 Rx 0  
   1408      3005.415 DT     0151 Rx 6  00 00 00 00 00 00 
   1409      3009.452 DT     0251 Rx 0  
   1410      3009.617 DT     0151 Rx 6  00 00 00 00 00 00 
   1411      3013.288 DT     0252 Rx 0  
   1412      3013.457 DT     0152 Rx 6  00 00 00 00 00 00 
   1413      3017.277 DT     0252 Rx 0  
   1414      3017.456 DT     0152 Rx 6  00 00 00 00 00 00 
   1415      3021.471 DT     0211 Rx 8  00 00 00 00 14 0B DC 05 
   1416      3021.775 DT     0111 Rx 8  A7 F1 FF 0B FF FF 78 01 
   1417      3025.362 DT     0211 Rx 8  00 00 00 00 14 0B DC 05 
   1418      3025.641 DT     0111 Rx 8  A7 F1 FF 0B FF FF 6C 01 
   1419      3029.415 DT     0212 Rx 8  00 00 00 00 14 0C DC 05 
   1420      3029.692 DT     0112 Rx 8  9A 00 00 0C 00 00 C8 FF 
   1421      3033.304 DT     0212 Rx 8  00 00 00 00 14 0C DC 05 
   1422      3033.589 DT     0112 Rx 8  9F 00 00 0C 00 00 BA FF 
   1423      3037.401 DT     0213 Rx 8  00 00 00 00 14 0D DC 05 
   1424      3037.674 DT     0113 Rx 8  6C FE FF 0D 00 00 38 00 
   1425      3041.061 DT     0213 Rx 8  00 00 00 00 14 0D DC 05 
   1426      3041.361 DT     0113 Rx 8  6C FE FF 0D 00 00 3C 00 
   1427      3045.177 DT     0251 Rx 0  
   1428      3045.386 DT     0151 Rx 6  00 00 00 00 00 00 
   1429      3049.227 DT     0251 Rx 0  
   1430      3049.435 DT     0151 Rx 6  00 00 00 00 00 00 
   1431      3053.527 DT     0252 Rx 0  
   1432      3053.696 DT     0152 Rx 6  00 00 00 00 00 00 
   1433      3057.304 DT     0252 Rx 0  
   1434      3057.473 DT     0152 Rx 6  00 00 00 00 00 00 
   1435      3061.123 DT     0211 Rx 8  00 00 00 00 14 0E DC 05 
   1436      3061.398 DT     0111 Rx 8  FF F2 FF 0E 02 00 0C 01 
   1437      3065.075 DT     0211 Rx 8  00 00 00 00 14 0E DC 05 
   1438      3065.353 DT     0111 Rx 8  5D F3 FF 0E 02 00 01 01 
   1439      3069.226 DT     0212 Rx 8  00 00 00 00 14 0F DC 05 
   1440      3069.515 DT     0112 Rx 8  FD 00 00 0F 00 00 8F FF 
   1441      3072.981 DT     0212 Rx 8  00 00 00 00 14 0F DC 05 
   1442      3073.260 DT     0112 Rx 8  08 01 00 0F 00 00 8F FF 
   1443      3077.066 DT     0213 Rx 8  00 00 00 00 14 00 DC 05 
   1444      3077.353 DT     0113 Rx 8  11 FF FF 00 00 00 28 00 
   1445      3081.063 DT     0213 Rx 8  00 00 00 00 14 00 DC 05 
   1446      3081.353 DT     0113 Rx 8  20 FF FF 00 00 00 1D 00 
   1447      3085.186 DT     0251 Rx 0  
   1448      3085.377 DT     0151 Rx 6  00 00 00 00 00 00 
   1449      3089.003 DT     0251 Rx 0  
   1450      3089.169 DT     0151 Rx 6  00 00 00 00 00 00 
   1451      3093.151 DT     0252 Rx 0  
   1452      3093.323 DT     0152 Rx 6  00 00 00 00 00 00 
   1453      3096.964 DT     0252 Rx 0  
   1454      3097.161 DT     0152 Rx 6  00 00 00 00 00 00 
   1455      3101.163 DT     0211 Rx 8  00 00 00 00 14 01 DC 05 
   1456      3101.424 DT     0111 Rx 8  2F F8 FF 01 06 00 4B 00 
   1457      3104.948 DT     0211 Rx 8  00 00 00 00 14 01 DC 05 
   1458      3105.222 DT     0111 Rx 8  D6 F8 FF 01 06 00 35 00 
   1459      3108.977 DT     0212 Rx 8  00 00 00 00 14 02 DC 05 
   1460      3109.251 DT     0112 Rx 8  51 01 00 02 00 00 70 FF 
   1461      3113.188 DT     0212 Rx 8  00 00 00 00 14 02 DC 05 
   1462      3113.466 DT     0112 Rx 8  56 01 00 02 00 00 71 FF 
   1463      3117.033 DT     0213 Rx 8  00 00 00 00 14 03 DC 05 
   1464      3117.288 DT     0113 Rx 8  A7 FF FF 03 00 00 09 00 
   1465      3121.127 DT     0213 Rx 8  00 00 00 00 14 03 DC 05 
   1466      3121.404 DT     0113 Rx 8  A7 FF FF 03 00 00 0B 00 
   1467      3125.009 DT     0251 Rx 0  
   1468      3125.192 DT     0151 Rx 6  00 00 00 00 00 00 
   1469      3129.011 DT     0251 Rx 0  
   1470      3129.165 DT     0151 Rx 6  00 00 00 00 00 00 
   1471      3133.474 DT     0252 Rx 0  
   1472      3133.642 DT     0152 Rx 6  00 00 00 00 00 00 
   1473      3137.062 DT     0252 Rx 0  
   1474      3137.230 DT     0152 Rx 6  00 00 00 00 00 00 
   1475      3141.122 DT     0211 Rx 8  00 00 00 00 14 04 DC 05 
   1476      3141.374 DT     0111 Rx 8  4D FF FF 04 06 00 EF FE 
   1477      3144.870 DT     0211 Rx 8  00 00 00 00 14 04 DC 05 
   1478      3145.130 DT     0111 Rx 8  EE FF FF 04 06 00 B8 FE 
   1479      3149.045 DT     0212 Rx 8  00 00 00 00 14 05 DC 05 
   1480      3149.417 DT     0112 Rx 8  66 01 00 05 00 00 60 FF 
   1481      3153.034 DT     0212 Rx 8  00 00 00 00 14 05 DC 05 
   1482      3153.330 DT     0112 Rx 8  66 01 00 05 00 00 7F FF 
   1483      3157.116 DT     0213 Rx 8  00 00 00 00 14 06 DC 05 
   1484      3157.391 DT     0113 Rx 8  3B 01 00 06 01 00 BC FF 
   1485      3161.013 DT     0213 Rx 8  00 00 00 00 14 06 DC 05 
   1486      3161.288 DT     0113 Rx 8  3B 01 00 06 00 00 CC FF 
   1487      3165.106 DT     0251 Rx 0  
   1488      3165.271 DT     0151 Rx 6  00 00 00 00 00 00 
   1489      3168.987 DT     0251 Rx 0  
   1490      3169.153 DT     0151 Rx 6  00 00 00 00 00 00 
   1491      3173.206 DT     0252 Rx 0  
   1492      3173.374 DT     0152 Rx 6  00 00 00 00 00 00 
   1493      3176.956 DT     0252 Rx 0  
   1494      3177.124 DT     0152 Rx 6  00 00 00 00 00 00 
   1495      3181.037 DT     0211 Rx 8  00 00 00 00 14 07 DC 05 
   1496      3181.313 DT     0111 Rx 8  59 06 00 07 08 00 90 FE 
   1497      3184.950 DT     0211 Rx 8  00 00 00 00 14 07 DC 05 
   1498      3185.250 DT     0111 Rx 8  37 07 00 07 08 00 7D FE 
   1499      3188.787 DT     0212 Rx 8  00 00 00 00 14 08 DC 05 
   1500      3189.066 DT     0112 Rx 8  6B 01 00 08 00 00 60 FF 
   1501      3192.645 DT     0212 Rx 8  00 00 00 00 14 08 DC 05 
   1502      3192.963 DT     0112 Rx 8  6B 01 00 08 00 00 60 FF 
   1503      3196.697 DT     0213 Rx 8  00 00 00 00 14 09 DC 05 
   1504      3196.971 DT     0113 Rx 8  A3 01 00 09 00 00 C6 FF 
   1505      3200.646 DT     0213 Rx 8  00 00 00 00 14 09 DC 05 
   1506      3200.943 DT     0113 Rx 8  A3 01 00 09 00 00 BB FF 
   1507      3204.968 DT     0251 Rx 0  
   1508      3205.167 DT     0151 Rx 6  00 00 00 00 00 00 
   1509      3209.004 DT     0251 Rx 0  
   1510      3209.213 DT     0151 Rx 6  00 00 00 00 00 00 
   1511      3213.397 DT     0252 Rx 0  
   1512      3213.566 DT     0152 Rx 6  00 00 00 00 00 00 
   1513      3217.047 DT     0252 Rx 0  
   1514      3217.227 DT     0152 Rx 6  00 00 00 00 00 00 
   1515      3221.108 DT     0211 Rx 8  00 00 00 00 14 0A DC 05 
   1516      3221.428 DT     0111 Rx 8  8A 0E 00 0A 08 00 75 FE 
   1517      3224.802 DT     0211 Rx 8  00 00 00 00 14 0A DC 05 
   1518      3225.124 DT     0111 Rx 8  54 0F 00 0A 08 00 67 FE 
   1519      3229.154 DT     0212 Rx 8  00 00 00 00 14 0B DC 05 
   1520      3229.473 DT     0112 Rx 8  60 01 00 0B 00 00 53 FF 
   1521      3232.800 DT     0212 Rx 8  00 00 00 00 14 0B DC 05 
   1522      3233.082 DT     0112 Rx 8  60 01 00 0B 00 00 52 FF 
   1523      3237.110 DT     0213 Rx 8  00 00 00 00 14 0C DC 05 
   1524      3237.399 DT     0113 Rx 8  B2 01 00 0C 00 00 BC FF 
   1525      3240.930 DT     0213 Rx 8  00 00 00 00 14 0C DC 05 
   1526      3241.237 DT     0113 Rx 8  B2 01 00 0C 00 00 BC FF 
   1527      3244.897 DT     0251 Rx 0  
   1528      3245.062 DT     0151 Rx 6  00 00 00 00 00 00 
   1529      3250.524 DT     0252 Rx 0  
   1530      3250.733 DT     0152 Rx 6  00 00 00 00 00 00 
   1531      3253.599 DT     0252 Rx 0  
   1532      3253.767 DT     0152 Rx 6  00 00 00 00 00 00 
   1533      3257.635 DT     0211 Rx 8  00 00 00 00 14 0D DC 05 
   1534      3257.933 DT     0111 Rx 8  24 15 00 0D 07 00 68 FE 
   1535      3261.500 DT     0211 Rx 8  00 00 00 00 14 0D DC 05 
   1536      3261.819 DT     0111 Rx 8  AA 15 00 0D 07 00 75 FE 
   1537      3283.710 DT     0212 Rx 8  00 00 00 00 14 0E DC 05 
   1538      3283.986 DT     0112 Rx 8  6B 01 00 0E 00 00 61 FF 
   1539      3285.473 DT     0212 Rx 8  00 00 00 00 14 0E DC 05 
   1540      3285.767 DT     0112 Rx 8  6B 01 00 0E 00 00 60 FF 
   1541      3289.521 DT     0213 Rx 8  00 00 00 00 14 0F DC 05 
   1542      3289.796 DT     0113 Rx 8  B2 01 00 0F 00 00 B3 FF 
   1543      3296.260 DT     0213 Rx 8  00 00 00 00 14 0F DC 05 
   1544      3296.541 DT     0113 Rx 8  B2 01 00 0F 00 00 BC FF 
   1545      3311.708 DT     0251 Rx 0  
   1546      3311.925 DT     0151 Rx 6  00 00 00 00 00 00 
   1547      3313.574 DT     0252 Rx 0  
   1548      3313.782 DT     0152 Rx 6  00 00 00 00 00 00 
   1549      3317.407 DT     0252 Rx 0  
   1550      3317.577 DT     0152 Rx 6  00 00 00 00 00 00 
   1551      3321.516 DT     0211 Rx 8  00 00 00 00 14 00 DC 05 
   1552      3321.811 DT     0111 Rx 8  06 1F 00 00 05 00 6E FE 
   1553      3325.256 DT     0211 Rx 8  00 00 00 00 14 00 DC 05 
   1554      3325.539 DT     0111 Rx 8  68 1F 00 00 05 00 6F FE 
   1555      3329.410 DT     0212 Rx 8  00 00 00 00 14 01 DC 05 
   1556      3329.707 DT     0112 Rx 8  66 01 00 01 00 00 70 FF 
   1557      3333.508 DT     0212 Rx 8  00 00 00 00 14 01 DC 05 
   1558      3333.807 DT     0112 Rx 8  66 01 00 01 00 00 70 FF 
   1559      3337.414 DT     0213 Rx 8  00 00 00 00 14 02 DC 05 
   1560      3337.717 DT     0113 Rx 8  B2 01 00 02 00 00 C1 FF 
   1561      3341.366 DT     0213 Rx 8  00 00 00 00 14 02 DC 05 
   1562      3341.661 DT     0113 Rx 8  B2 01 00 02 00 00 BC FF 
   1563      3345.536 DT     0251 Rx 0  
   1564      3345.735 DT     0151 Rx 6  00 00 00 00 00 00 
   1565      3349.540 DT     0251 Rx 0  
   1566      3349.737 DT     0151 Rx 6  00 00 00 00 00 00 
   1567      3353.643 DT     0252 Rx 0  
   1568      3353.843 DT     0152 Rx 6  00 00 00 00 00 00 
   1569      3357.491 DT     0252 Rx 0  
   1570      3357.674 DT     0152 Rx 6  00 00 00 00 00 00 
   1571      3361.437 DT     0211 Rx 8  00 00 00 00 14 03 DC 05 
   1572      3361.735 DT     0111 Rx 8  55 23 00 03 04 00 59 FE 
   1573      3365.592 DT     0211 Rx 8  00 00 00 00 14 03 DC 05 
   1574      3365.870 DT     0111 Rx 8  BF 23 00 03 03 00 65 FE 
   1575      3369.445 DT     0212 Rx 8  00 00 00 00 14 04 DC 05 
   1576      3369.752 DT     0112 Rx 8  51 01 00 04 00 00 61 FF 
   1577      3373.302 DT     0212 Rx 8  00 00 00 00 14 04 DC 05 
   1578      3373.631 DT     0112 Rx 8  51 01 00 04 00 00 71 FF 
   1579      3377.270 DT     0213 Rx 8  00 00 00 00 14 05 DC 05 
   1580      3377.574 DT     0113 Rx 8  B2 01 00 05 00 00 C1 FF 
   1581      3381.349 DT     0213 Rx 8  00 00 00 00 14 05 DC 05 
   1582      3381.647 DT     0113 Rx 8  B2 01 00 05 00 00 BC FF 
   1583      3385.287 DT     0251 Rx 0  
   1584      3385.487 DT     0151 Rx 6  00 00 00 00 00 00 
   1585      3389.088 DT     0251 Rx 0  
   1586      3389.263 DT     0151 Rx 6  00 00 00 00 00 00 
   1587      3393.367 DT     0252 Rx 0  
   1588      3393.550 DT     0152 Rx 6  00 00 00 00 00 00 
   1589      3397.194 DT     0252 Rx 0  
   1590      3397.361 DT     0152 Rx 6  00 00 00 00 00 00 
   1591      3401.423 DT     0211 Rx 8  00 00 00 00 14 06 DC 05 
   1592      3401.697 DT     0111 Rx 8  6E 25 00 06 01 00 54 FE 
   1593      3405.352 DT     0211 Rx 8  00 00 00 00 14 06 DC 05 
   1594      3405.660 DT     0111 Rx 8  82 25 00 06 01 00 4F FE 
   1595      3409.461 DT     0212 Rx 8  00 00 00 00 14 07 DC 05 
   1596      3409.740 DT     0112 Rx 8  51 01 00 07 00 00 60 FF 
   1597      3413.356 DT     0212 Rx 8  00 00 00 00 14 07 DC 05 
   1598      3413.667 DT     0112 Rx 8  41 01 00 07 00 00 7F FF 
   1599      3417.411 DT     0213 Rx 8  00 00 00 00 14 08 DC 05 
   1600      3417.720 DT     0113 Rx 8  B2 01 00 08 00 00 BC FF 
   1601      3421.131 DT     0213 Rx 8  00 00 00 00 14 08 DC 05 
   1602      3421.407 DT     0113 Rx 8  B2 01 00 08 00 00 BC FF 
   1603      3425.191 DT     0251 Rx 0  
   1604      3425.378 DT     0151 Rx 6  00 00 00 00 00 00 
   1605      3429.090 DT     0251 Rx 0  
   1606      3429.290 DT     0151 Rx 6  00 00 00 00 00 00 
   1607      3433.854 DT     0252 Rx 0  
   1608      3434.066 DT     0152 Rx 6  00 00 00 00 00 00 
   1609      3437.096 DT     0252 Rx 0  
   1610      3437.264 DT     0152 Rx 6  00 00 00 00 00 00 
   1611      3441.183 DT     0211 Rx 8  00 00 00 00 14 09 DC 05 
   1612      3441.486 DT     0111 Rx 8  A5 25 00 09 00 00 5B FE 
   1613      3445.016 DT     0211 Rx 8  00 00 00 00 14 09 DC 05 
   1614      3445.309 DT     0111 Rx 8  A5 25 00 09 00 00 5B FE 
   1615      3449.230 DT     0212 Rx 8  00 00 00 00 14 0A DC 05 
   1616      3449.507 DT     0112 Rx 8  37 01 00 0A 00 00 7F FF 
   1617      3453.157 DT     0212 Rx 8  00 00 00 00 14 0A DC 05 
   1618      3453.433 DT     0112 Rx 8  37 01 00 0A 00 00 8D FF 
   1619      3457.098 DT     0213 Rx 8  00 00 00 00 14 0B DC 05 
   1620      3457.400 DT     0113 Rx 8  94 01 00 0B 00 00 C6 FF 
   1621      3461.229 DT     0213 Rx 8  00 00 00 00 14 0B DC 05 
   1622      3461.536 DT     0113 Rx 8  67 01 00 0B 00 00 CC FF 
   1623      3465.077 DT     0251 Rx 0  
   1624      3465.243 DT     0151 Rx 6  00 00 00 00 00 00 
   1625      3469.208 DT     0251 Rx 0  
   1626      3469.420 DT     0151 Rx 6  00 00 00 00 00 00 
   1627      3473.107 DT     0252 Rx 0  
   1628      3473.308 DT     0152 Rx 6  00 00 00 00 00 00 
   1629      3476.994 DT     0252 Rx 0  
   1630      3477.197 DT     0152 Rx 6  00 00 00 00 00 00 
   1631      3481.207 DT     0211 Rx 8  00 00 00 00 14 0C DC 05 
   1632      3481.498 DT     0111 Rx 8  D4 24 00 0C FF FF 91 FE 
   1633      3516.258 DT     0211 Rx 8  00 00 00 00 14 0C DC 05 
   1634      3516.564 DT     0111 Rx 8  14 23 00 0C FE FF D8 FE 
   1635      3519.557 DT     0212 Rx 8  00 00 00 00 14 0D DC 05 
   1636      3519.836 DT     0112 Rx 8  3C 01 00 0D 00 00 7F FF 
   1637      3521.590 DT     0213 Rx 8  00 00 00 00 14 0E DC 05 
   1638      3521.866 DT     0113 Rx 8  0D 01 00 0E 00 00 D6 FF 
   1639      3524.942 DT     0213 Rx 8  00 00 00 00 14 0E DC 05 
   1640      3525.205 DT     0113 Rx 8  FF 00 00 0E 00 00 DB FF 
   1641      3542.676 DT     0251 Rx 0  
   1642      3542.857 DT     0151 Rx 6  00 00 00 00 00 00 
   1643      3564.483 DT     0252 Rx 0  
   1644      3564.684 DT     0152 Rx 6  00 00 00 00 00 00 
   1645      3565.293 DT     0252 Rx 0  
   1646      3565.469 DT     0152 Rx 6  00 00 00 00 00 00 
   1647      3568.927 DT     0211 Rx 8  00 00 00 00 14 0F DC 05 
   1648      3569.242 DT     0111 Rx 8  20 1F 00 0F FD FF 25 FF 
   1649      3572.887 DT     0211 Rx 8  00 00 00 00 14 0F DC 05 
   1650      3573.201 DT     0111 Rx 8  C8 1E 00 0F FD FF 26 FF 
   1651      3576.954 DT     0212 Rx 8  00 00 00 00 14 00 DC 05 
   1652      3577.279 DT     0112 Rx 8  3C 01 00 00 00 00 7F FF 
   1653      3595.737 DT     0212 Rx 8  00 00 00 00 14 00 DC 05 
   1654      3596.029 DT     0112 Rx 8  3C 01 00 00 00 00 70 FF 
   1655      3597.160 DT     0213 Rx 8  00 00 00 00 14 01 DC 05 
